date Tue Apr 24 01:32:29 pm 2018
base hex  timestamps absolute
internal events logged
// version 8.1.0
Begin Triggerblock Tue Apr 24 01:32:29 pm 2018
   0.000000 Start of measurement
   0.001353 1  200             Rx   d 6 00 00 9F 00 00 00  Length = 204000 BitCount = 106 ID = 512
   0.001587 1  260             Rx   d 8 0D 17 17 30 00 C7 64 03  Length = 226000 BitCount = 117 ID = 608
   0.001771 1  2B0             Rx   d 5 01 01 00 07 25  Length = 176000 BitCount = 92 ID = 688
   0.001819 CAN 1 Status:chip status error active
   0.001996 CAN 2 Status:chip status error active
   0.002002 1  316             Rx   d 8 65 17 54 0B 17 16 00 6D  Length = 222000 BitCount = 115 ID = 790
   0.002236 1  329             Rx   d 8 86 B5 7C 0C 11 20 00 14  Length = 226000 BitCount = 117 ID = 809
   0.002444 1  374             Rx   d 6 54 0B 00 00 00 00  Length = 200000 BitCount = 104 ID = 884
   0.002678 1  383             Rx   d 8 2E 2B 35 69 70 00 00 29  Length = 226000 BitCount = 117 ID = 899
   0.002918 1  340             Rx   d 8 00 00 00 24 24 00 58 10  Length = 232000 BitCount = 120 ID = 832
   0.003163 1  544             Rx   d 8 FF 77 FF FF 00 00 00 00  Length = 236000 BitCount = 122 ID = 1348
   0.004297 1  420             Rx   d 8 60 00 20 C8 FE 4F 6A 00  Length = 228000 BitCount = 118 ID = 1056
   0.004537 1  153             Rx   d 8 00 00 10 FF 00 FF C0 CE  Length = 232000 BitCount = 120 ID = 339
   0.004775 1  220             Rx   d 8 14 04 81 30 00 05 10 07  Length = 230000 BitCount = 119 ID = 544
   0.005017 1  394             Rx   d 8 00 20 00 00 FF 83 14 82  Length = 234000 BitCount = 121 ID = 916
   0.005261 1  421             Rx   d 8 00 00 00 FF E3 7F 20 FA  Length = 236000 BitCount = 122 ID = 1057
   0.005545 1  50A             Rx   d 8 2A 00 00 00 00 00 00 00  Length = 240000 BitCount = 124 ID = 1290
   0.009441 1  386             Rx   d 8 00 00 00 00 00 40 00 80  Length = 238000 BitCount = 123 ID = 902
   0.009609 1  164             Rx   d 4 00 08 04 0C  Length = 160000 BitCount = 84 ID = 356
   0.009846 1  251             Rx   d 8 02 04 B6 46 00 02 08 80  Length = 228000 BitCount = 118 ID = 593
   0.010080 1  111             Rx   d 8 00 40 61 FF 7B FE 0A 68  Length = 226000 BitCount = 117 ID = 273
   0.010324 1  112             Rx   d 8 FF A0 00 00 FF FE 0A 00  Length = 236000 BitCount = 122 ID = 274
   0.010568 1  113             Rx   d 8 00 20 00 80 00 00 01 D8  Length = 236000 BitCount = 122 ID = 275
   0.010811 1  18F             Rx   d 8 FA 50 00 00 00 48 00 20  Length = 234000 BitCount = 121 ID = 399
   0.011061 1  1BF             Rx   d 8 00 00 00 00 00 00 00 00  Length = 242000 BitCount = 125 ID = 447
   0.011273 1  200             Rx   d 6 72 00 9F 00 00 00  Length = 204000 BitCount = 106 ID = 512
   0.011511 1  260             Rx   d 8 0C 17 17 30 00 C7 64 13  Length = 230000 BitCount = 119 ID = 608
   0.011695 1  2B0             Rx   d 5 02 01 00 07 26  Length = 176000 BitCount = 92 ID = 688
   0.011924 1  316             Rx   d 8 65 17 50 0B 17 16 00 6D  Length = 220000 BitCount = 114 ID = 790
   0.012158 1  329             Rx   d 8 F2 B5 7C 0C 11 20 00 14  Length = 226000 BitCount = 117 ID = 809
   0.012366 1  374             Rx   d 6 54 0B 00 00 00 00  Length = 200000 BitCount = 104 ID = 884
   0.012606 1  381             Rx   d 8 80 10 40 00 00 DB B0 05  Length = 232000 BitCount = 120 ID = 897
   0.012847 1  340             Rx   d 8 00 00 00 24 34 00 68 10  Length = 232000 BitCount = 120 ID = 832
   0.013083 1  492             Rx   d 8 00 00 70 2E A8 80 6E 74  Length = 228000 BitCount = 118 ID = 1170
   0.013319 1  4E5             Rx   d 8 80 6A 00 04 48 C3 00 00  Length = 228000 BitCount = 118 ID = 1253
   0.013549 1  4E6             Rx   d 8 48 C3 00 00 85 85 8C BA  Length = 222000 BitCount = 115 ID = 1254
   0.013795 1  4E7             Rx   d 8 1E 7C 00 08 00 82 00 00  Length = 238000 BitCount = 123 ID = 1255
   0.014034 1  545             Rx   d 8 D0 76 00 8C 00 00 00 C0  Length = 230000 BitCount = 119 ID = 1349
   0.014268 1  547             Rx   d 8 00 00 91 3F 4C 01 2D 00  Length = 226000 BitCount = 117 ID = 1351
   0.014506 1  153             Rx   d 8 00 00 10 FF 00 FF D0 DE  Length = 230000 BitCount = 119 ID = 339
   0.014748 1  220             Rx   d 8 15 04 81 30 00 0C 10 1F  Length = 234000 BitCount = 121 ID = 544
   0.014952 1  47F             Rx   d 6 00 F1 FF FA 00 00  Length = 196000 BitCount = 102 ID = 1151
   0.015180 1  549             Rx   d 8 B8 82 61 6B 60 26 61 5F  Length = 220000 BitCount = 114 ID = 1353
   0.015421 1  556             Rx   d 8 1E 7F 50 0B 00 1F 02 00  Length = 232000 BitCount = 120 ID = 1366
   0.015659 1  557             Rx   d 8 7F 82 00 00 2F 69 04 00  Length = 230000 BitCount = 119 ID = 1367
   0.015889 1  5CE             Rx   d 8 54 54 75 2E 01 00 59 05  Length = 222000 BitCount = 115 ID = 1486
   0.016123 1  5CF             Rx   d 8 40 06 00 00 34 93 7B 00  Length = 226000 BitCount = 117 ID = 1487
   0.019321 1  387             Rx   d 6 58 3D 0B 08 00 A8  Length = 190000 BitCount = 99 ID = 903
   0.019489 1  164             Rx   d 4 00 08 06 0E  Length = 160000 BitCount = 84 ID = 356
   0.019701 1  4F1             Rx   d 4 00 00 0A 30  Length = 164000 BitCount = 86 ID = 1265
   0.019940 1  111             Rx   d 8 00 40 61 FF 7B FA 0A 6C  Length = 230000 BitCount = 119 ID = 273
   0.020184 1  112             Rx   d 8 FF F0 00 00 FF FA 0A 00  Length = 236000 BitCount = 122 ID = 274
   0.020428 1  113             Rx   d 8 00 20 00 80 00 00 01 9C  Length = 236000 BitCount = 122 ID = 275
   0.020662 1  251             Rx   d 8 04 04 B7 4A 00 03 08 80  Length = 226000 BitCount = 117 ID = 593
   0.020905 1  18F             Rx   d 8 FA 50 00 00 00 48 00 20  Length = 234000 BitCount = 121 ID = 399
   0.021155 1  1BF             Rx   d 8 00 00 00 00 00 00 00 00  Length = 242000 BitCount = 125 ID = 447
   0.021367 1  200             Rx   d 6 00 00 9F 00 00 00  Length = 204000 BitCount = 106 ID = 512
   0.021603 1  260             Rx   d 8 0C 17 17 30 00 C7 65 21  Length = 228000 BitCount = 118 ID = 608
   0.021788 1  2B0             Rx   d 5 02 01 00 07 37  Length = 176000 BitCount = 92 ID = 688
   0.022016 1  316             Rx   d 8 65 17 50 0B 17 16 00 6D  Length = 220000 BitCount = 114 ID = 790
   0.022250 1  329             Rx   d 8 F2 B5 7C 0C 11 20 00 14  Length = 226000 BitCount = 117 ID = 809
   0.022457 1  374             Rx   d 6 50 0B 00 00 00 00  Length = 198000 BitCount = 103 ID = 884
   0.022691 1  383             Rx   d 8 2E 2B 45 69 70 00 00 59  Length = 226000 BitCount = 117 ID = 899
   0.022933 1  340             Rx   d 8 00 00 00 24 44 00 78 10  Length = 234000 BitCount = 121 ID = 832
   0.023049 1  500             Rx   d 1 00  Length = 108000 BitCount = 58 ID = 1280
   0.023201 1  586             Rx   d 3 00 00 00  Length = 144000 BitCount = 76 ID = 1414
   0.024363 1  153             Rx   d 8 00 00 10 FF 00 FF E0 EE  Length = 236000 BitCount = 122 ID = 339
   0.024599 1  220             Rx   d 8 15 04 81 30 00 F4 0F 24  Length = 228000 BitCount = 118 ID = 544
   0.024841 1  394             Rx   d 8 00 40 00 00 FF 83 12 82  Length = 234000 BitCount = 121 ID = 916
   0.025078 1  420             Rx   d 8 70 00 20 C8 FE 4F 6A 00  Length = 228000 BitCount = 118 ID = 1056
   0.025344 1  421             Rx   d 8 00 00 00 FF E3 7F 20 EB  Length = 232000 BitCount = 120 ID = 1057
   0.027610 1  58B             Rx   d 8 11 00 04 00 00 00 00 20  Length = 240000 BitCount = 124 ID = 1419
   0.029442 1  386             Rx   d 8 00 40 00 00 00 40 00 80  Length = 240000 BitCount = 124 ID = 902
   0.029614 1  164             Rx   d 4 00 08 08 00  Length = 164000 BitCount = 86 ID = 356
   0.029850 1  251             Rx   d 8 03 04 B8 49 00 02 08 80  Length = 228000 BitCount = 118 ID = 593
   0.030089 1  111             Rx   d 8 00 40 61 FF 7B F6 0A 60  Length = 230000 BitCount = 119 ID = 273
   0.030331 1  112             Rx   d 8 FF 00 00 00 FF F6 0A 00  Length = 234000 BitCount = 121 ID = 274
   0.030573 1  113             Rx   d 8 00 20 00 80 00 00 01 50  Length = 234000 BitCount = 121 ID = 275
   0.030815 1  18F             Rx   d 8 FA 50 00 00 00 48 00 20  Length = 234000 BitCount = 121 ID = 399
   0.031066 1  1BF             Rx   d 8 00 00 00 00 00 00 00 00  Length = 242000 BitCount = 125 ID = 447
   0.031278 1  200             Rx   d 6 00 00 9F 00 00 00  Length = 204000 BitCount = 106 ID = 512
   0.031512 1  260             Rx   d 8 0C 17 17 30 00 C7 66 3F  Length = 226000 BitCount = 117 ID = 608
   0.031700 1  2B0             Rx   d 5 02 01 00 07 C8  Length = 180000 BitCount = 94 ID = 688
   0.031929 1  316             Rx   d 8 65 17 50 0B 17 16 00 6D  Length = 220000 BitCount = 114 ID = 790
   0.032163 1  329             Rx   d 8 F2 B5 7C 0C 11 20 00 14  Length = 226000 BitCount = 117 ID = 809
   0.032369 1  374             Rx   d 6 50 0B 00 00 00 00  Length = 198000 BitCount = 103 ID = 884
   0.032611 1  381             Rx   d 8 80 10 40 00 00 DC B1 05  Length = 234000 BitCount = 121 ID = 897
   0.032853 1  340             Rx   d 8 00 00 00 24 54 00 88 10  Length = 234000 BitCount = 121 ID = 832
   0.034358 1  153             Rx   d 8 00 00 10 FF 00 FF 00 0E  Length = 232000 BitCount = 120 ID = 339
   0.034596 1  220             Rx   d 8 14 44 81 30 00 01 10 33  Length = 230000 BitCount = 119 ID = 544
   0.034802 1  47F             Rx   d 6 00 F2 FF FA 00 00  Length = 198000 BitCount = 103 ID = 1151
   0.035048 1  587             Rx   d 8 00 00 00 00 00 00 00 06  Length = 238000 BitCount = 123 ID = 1415
   0.039322 1  387             Rx   d 6 58 3D 0B 08 00 A8  Length = 190000 BitCount = 99 ID = 903
   0.039490 1  164             Rx   d 4 00 08 0A 02  Length = 160000 BitCount = 84 ID = 356
   0.039684 1  4F1             Rx   d 4 20 00 0A 40  Length = 158000 BitCount = 83 ID = 1265
   0.039917 1  111             Rx   d 8 00 40 61 FF 7B F7 0A 14  Length = 224000 BitCount = 116 ID = 273
   0.040155 1  112             Rx   d 8 FF 50 00 00 FF F7 0A 00  Length = 230000 BitCount = 119 ID = 274
   0.040397 1  113             Rx   d 8 00 20 00 80 00 00 01 14  Length = 234000 BitCount = 121 ID = 275
   0.040635 1  251             Rx   d 8 02 04 B9 48 00 01 08 80  Length = 230000 BitCount = 119 ID = 593
   0.040878 1  18F             Rx   d 8 FA 50 00 00 00 48 00 20  Length = 234000 BitCount = 121 ID = 399
   0.041128 1  1BF             Rx   d 8 00 00 00 00 00 00 00 00  Length = 242000 BitCount = 125 ID = 447
   0.041340 1  200             Rx   d 6 00 00 9F 00 00 00  Length = 204000 BitCount = 106 ID = 512
   0.041574 1  260             Rx   d 8 0C 17 17 30 00 C7 66 02  Length = 226000 BitCount = 117 ID = 608
   0.041763 1  2B0             Rx   d 5 02 01 00 07 D9  Length = 180000 BitCount = 94 ID = 688
   0.041991 1  316             Rx   d 8 65 17 50 0B 17 16 00 6D  Length = 220000 BitCount = 114 ID = 790
   0.042225 1  329             Rx   d 8 F2 B5 7C 0C 11 20 00 14  Length = 226000 BitCount = 117 ID = 809
   0.042432 1  374             Rx   d 6 50 0B 00 00 00 00  Length = 198000 BitCount = 103 ID = 884
   0.042667 1  383             Rx   d 8 2E 2B 55 69 70 00 00 49  Length = 228000 BitCount = 118 ID = 899
   0.042910 1  340             Rx   d 8 00 00 00 24 64 00 98 10  Length = 234000 BitCount = 121 ID = 832
   0.043150 1  410             Rx   d 8 90 1B 49 10 21 02 00 00  Length = 232000 BitCount = 120 ID = 1040
   0.043346 1  436             Rx   d 4 00 00 00 00  Length = 164000 BitCount = 86 ID = 1078
   0.043618 1  50E             Rx   d 8 00 00 00 60 00 00 00 00  Length = 240000 BitCount = 124 ID = 1294
   0.043894 1  520             Rx   d 8 00 00 00 00 00 00 00 00  Length = 244000 BitCount = 126 ID = 1312
   0.044164 1  541             Rx   d 8 03 01 81 00 00 00 00 00  Length = 238000 BitCount = 123 ID = 1345
   0.044405 1  153             Rx   d 8 00 00 10 FF 00 FF 10 1E  Length = 232000 BitCount = 120 ID = 339
   0.044641 1  220             Rx   d 8 13 44 81 3C 00 08 10 45  Length = 228000 BitCount = 118 ID = 544
   0.044883 1  394             Rx   d 8 00 60 00 00 FF 83 10 82  Length = 234000 BitCount = 121 ID = 916
   0.045119 1  420             Rx   d 8 80 00 20 C8 FE 4F 6A 00  Length = 228000 BitCount = 118 ID = 1056
   0.045343 1  490             Rx   d 7 00 00 08 21 00 00 3C  Length = 216000 BitCount = 112 ID = 1168
   0.045585 1  421             Rx   d 8 00 00 00 FF E3 7F 20 DC  Length = 234000 BitCount = 121 ID = 1057
   0.045828 1  553             Rx   d 8 00 00 19 04 01 00 C0 00  Length = 234000 BitCount = 121 ID = 1363
   0.046098 1  559             Rx   d 8 00 00 00 00 20 00 00 40  Length = 238000 BitCount = 123 ID = 1369
   0.049438 1  386             Rx   d 8 00 80 00 00 00 40 00 80  Length = 236000 BitCount = 122 ID = 902
   0.049606 1  164             Rx   d 4 00 08 0C 04  Length = 160000 BitCount = 84 ID = 356
   0.049844 1  381             Rx   d 8 80 08 40 00 00 DD AA 05  Length = 230000 BitCount = 119 ID = 897
   0.050079 1  111             Rx   d 8 00 40 61 FF 7B F5 0A F8  Length = 226000 BitCount = 117 ID = 273
   0.050317 1  112             Rx   d 8 FF A0 00 00 FF F5 0A 00  Length = 230000 BitCount = 119 ID = 274
   0.050561 1  113             Rx   d 8 00 20 00 80 00 00 01 D8  Length = 236000 BitCount = 122 ID = 275
   0.050803 1  18F             Rx   d 8 FA 50 00 00 00 48 00 20  Length = 234000 BitCount = 121 ID = 399
   0.051053 1  1BF             Rx   d 8 00 00 00 00 00 00 00 00  Length = 242000 BitCount = 125 ID = 447
   0.051266 1  200             Rx   d 6 71 00 9F 00 00 00  Length = 204000 BitCount = 106 ID = 512
   0.051502 1  251             Rx   d 8 02 04 BA 49 00 01 08 80  Length = 228000 BitCount = 118 ID = 593
   0.051734 1  260             Rx   d 8 0D 17 17 30 00 C7 64 12  Length = 224000 BitCount = 116 ID = 608
   0.051921 1  2B0             Rx   d 5 02 01 00 07 EA  Length = 178000 BitCount = 93 ID = 688
   0.052149 1  316             Rx   d 8 65 17 5C 0B 17 16 00 6D  Length = 220000 BitCount = 114 ID = 790
   0.052383 1  329             Rx   d 8 F2 B5 7C 0C 11 20 00 14  Length = 226000 BitCount = 117 ID = 809
   0.052590 1  374             Rx   d 6 50 0B 00 00 00 00  Length = 198000 BitCount = 103 ID = 884
   0.052830 1  340             Rx   d 8 00 00 00 24 74 00 A8 10  Length = 232000 BitCount = 120 ID = 832
   0.053066 1  555             Rx   d 8 9F 00 00 00 18 86 90 AF  Length = 228000 BitCount = 118 ID = 1365
   0.054356 1  153             Rx   d 8 00 00 10 FF 00 FF 20 2E  Length = 230000 BitCount = 119 ID = 339
   0.054594 1  220             Rx   d 8 13 24 81 30 00 01 10 50  Length = 230000 BitCount = 119 ID = 544
   0.054802 1  47F             Rx   d 6 00 F3 FF FA 00 00  Length = 200000 BitCount = 104 ID = 1151
   0.059318 1  387             Rx   d 6 58 3D 0B 08 00 A8  Length = 190000 BitCount = 99 ID = 903
   0.059486 1  164             Rx   d 4 00 08 0E 06  Length = 160000 BitCount = 84 ID = 356
   0.059730 1  4F1             Rx   d 4 00 00 0A 50  Length = 162000 BitCount = 85 ID = 1265
   0.059963 1  111             Rx   d 8 00 40 61 FF 7B FB 0A 5C  Length = 224000 BitCount = 116 ID = 273
   0.060205 1  112             Rx   d 8 FF F0 00 00 FF FB 0A 00  Length = 234000 BitCount = 121 ID = 274
   0.060449 1  113             Rx   d 8 00 20 00 80 00 00 01 9C  Length = 236000 BitCount = 122 ID = 275
   0.060691 1  18F             Rx   d 8 FA 50 00 00 00 48 00 20  Length = 234000 BitCount = 121 ID = 399
   0.060941 1  1BF             Rx   d 8 00 00 00 00 00 00 00 00  Length = 242000 BitCount = 125 ID = 447
   0.061154 1  200             Rx   d 6 00 00 9F 00 00 00  Length = 204000 BitCount = 106 ID = 512
   0.061388 1  251             Rx   d 8 03 04 BB 4D 00 03 08 80  Length = 226000 BitCount = 117 ID = 593
   0.061620 1  260             Rx   d 8 0D 17 17 30 00 C7 64 21  Length = 224000 BitCount = 116 ID = 608
   0.061807 1  2B0             Rx   d 5 02 01 00 07 FB  Length = 178000 BitCount = 93 ID = 688
   0.062035 1  316             Rx   d 8 65 17 5C 0B 17 16 00 6D  Length = 220000 BitCount = 114 ID = 790
   0.062269 1  329             Rx   d 8 F2 B5 7C 0C 11 20 00 14  Length = 226000 BitCount = 117 ID = 809
   0.062477 1  374             Rx   d 6 5C 0B 00 00 00 00  Length = 200000 BitCount = 104 ID = 884
   0.062711 1  383             Rx   d 8 2E 2B 65 69 70 00 00 79  Length = 226000 BitCount = 117 ID = 899
   0.062953 1  340             Rx   d 8 00 00 00 24 84 00 B8 10  Length = 234000 BitCount = 121 ID = 832
   0.063188 1  492             Rx   d 8 00 00 70 2E A8 80 6E 38  Length = 226000 BitCount = 117 ID = 1170
   0.063362 1  502             Rx   d 4 00 00 04 20  Length = 166000 BitCount = 87 ID = 1282
   0.063610 1  52A             Rx   d 8 00 00 00 00 04 00 00 00  Length = 240000 BitCount = 124 ID = 1322
   0.063824 1  53E             Rx   d 6 00 00 00 00 20 00  Length = 206000 BitCount = 107 ID = 1342
   0.064324 1  420             Rx   d 8 90 00 20 C8 FE 4F 6A 00  Length = 228000 BitCount = 118 ID = 1056
   0.064567 1  153             Rx   d 8 00 00 10 FF 00 FF 30 3E  Length = 234000 BitCount = 121 ID = 339
   0.064807 1  220             Rx   d 8 14 24 81 30 00 00 10 60  Length = 232000 BitCount = 120 ID = 544
   0.065049 1  394             Rx   d 8 00 80 00 00 FF 83 1E 82  Length = 234000 BitCount = 121 ID = 916
   0.065291 1  421             Rx   d 8 00 00 00 FF E3 7F 20 CD  Length = 234000 BitCount = 121 ID = 1057
   0.069435 1  386             Rx   d 8 00 C0 00 00 00 40 00 80  Length = 236000 BitCount = 122 ID = 902
   0.069603 1  164             Rx   d 4 00 08 10 18  Length = 160000 BitCount = 84 ID = 356
   0.069790 1  2B0             Rx   d 5 00 01 00 07 AC  Length = 178000 BitCount = 93 ID = 688
   0.070026 1  111             Rx   d 8 00 40 61 FF 7B 04 0B 60  Length = 228000 BitCount = 118 ID = 273
   0.070266 1  112             Rx   d 8 FF 00 00 00 FF 04 0B 00  Length = 232000 BitCount = 120 ID = 274
   0.070509 1  113             Rx   d 8 00 20 00 80 00 00 01 50  Length = 234000 BitCount = 121 ID = 275
   0.070743 1  251             Rx   d 8 03 04 BC 4E 00 03 08 80  Length = 226000 BitCount = 117 ID = 593
   0.070985 1  18F             Rx   d 8 FA 50 00 00 00 48 00 20  Length = 234000 BitCount = 121 ID = 399
   0.071235 1  1BF             Rx   d 8 00 00 00 00 00 00 00 00  Length = 242000 BitCount = 125 ID = 447
   0.071448 1  200             Rx   d 6 00 00 9F 00 00 00  Length = 204000 BitCount = 106 ID = 512
   0.071680 1  260             Rx   d 8 0D 17 17 30 00 C7 65 3F  Length = 224000 BitCount = 116 ID = 608
   0.071908 1  316             Rx   d 8 65 17 5C 0B 17 16 00 6D  Length = 220000 BitCount = 114 ID = 790
   0.072142 1  329             Rx   d 8 F2 B5 7C 0C 11 20 00 14  Length = 226000 BitCount = 117 ID = 809
   0.072350 1  374             Rx   d 6 5C 0B 00 00 00 00  Length = 200000 BitCount = 104 ID = 884
   0.072588 1  381             Rx   d 8 80 18 40 00 00 DE BB 05  Length = 230000 BitCount = 119 ID = 897
   0.072833 1  340             Rx   d 8 00 00 00 24 94 00 C8 10  Length = 236000 BitCount = 122 ID = 832
   0.074357 1  153             Rx   d 8 00 00 10 FF 00 FF 40 4E  Length = 232000 BitCount = 120 ID = 339
   0.074589 1  220             Rx   d 8 13 24 81 30 00 F3 0F 73  Length = 224000 BitCount = 116 ID = 544
   0.074795 1  47F             Rx   d 6 00 F4 FF FA 00 00  Length = 198000 BitCount = 103 ID = 1151
   0.074929 1  591             Rx   d 2 02 00  Length = 126000 BitCount = 67 ID = 1425
   0.076901 1  58B             Rx   d 8 11 00 04 00 00 00 00 20  Length = 240000 BitCount = 124 ID = 1419
   0.079317 1  387             Rx   d 6 58 3D 0B 08 00 A8  Length = 190000 BitCount = 99 ID = 903
   0.079483 1  164             Rx   d 4 00 08 12 1A  Length = 158000 BitCount = 83 ID = 356
   0.079748 1  2B0             Rx   d 5 02 01 00 07 9D  Length = 176000 BitCount = 92 ID = 688
   0.079982 1  111             Rx   d 8 00 40 61 FF 7B 0D 0B 94  Length = 226000 BitCount = 117 ID = 273
   0.080222 1  112             Rx   d 8 FF 50 00 00 FF 0D 0B 00  Length = 232000 BitCount = 120 ID = 274
   0.080465 1  113             Rx   d 8 00 20 00 80 00 00 01 14  Length = 234000 BitCount = 121 ID = 275
   0.080707 1  18F             Rx   d 8 FA 50 00 00 00 48 00 20  Length = 234000 BitCount = 121 ID = 399
   0.080957 1  1BF             Rx   d 8 00 00 00 00 00 00 00 00  Length = 242000 BitCount = 125 ID = 447
   0.081169 1  200             Rx   d 6 00 00 9F 00 00 00  Length = 204000 BitCount = 106 ID = 512
   0.081407 1  251             Rx   d 8 02 04 BD 3B 00 01 F8 7F  Length = 230000 BitCount = 119 ID = 593
   0.081642 1  260             Rx   d 8 0D 17 17 30 00 C7 64 03  Length = 226000 BitCount = 117 ID = 608
   0.081870 1  316             Rx   d 8 65 17 5C 0B 17 16 00 6D  Length = 220000 BitCount = 114 ID = 790
   0.082104 1  329             Rx   d 8 F2 B5 7C 0C 11 20 00 14  Length = 226000 BitCount = 117 ID = 809
   0.082312 1  374             Rx   d 6 5C 0B 00 00 00 00  Length = 200000 BitCount = 104 ID = 884
   0.082546 1  383             Rx   d 8 2E 2B 75 69 70 00 00 69  Length = 226000 BitCount = 117 ID = 899
   0.082786 1  340             Rx   d 8 00 00 00 24 A4 00 D8 10  Length = 232000 BitCount = 120 ID = 832
   0.082954 1  4F1             Rx   d 4 00 00 0A 60  Length = 160000 BitCount = 84 ID = 1265
   0.083199 1  50C             Rx   d 8 10 19 00 E9 18 10 02 B8  Length = 228000 BitCount = 118 ID = 1292
   0.083451 1  533             Rx   d 8 FF 1F 1F FF FF FF FF 00  Length = 236000 BitCount = 122 ID = 1331
   0.083707 1  534             Rx   d 8 FF FF FF FF FF FF 0F 00  Length = 240000 BitCount = 124 ID = 1332
   0.083961 1  535             Rx   d 8 07 FF FF FF FF FF FF FF  Length = 238000 BitCount = 123 ID = 1333
   0.084311 1  420             Rx   d 8 A0 00 20 C8 FE 4F 6A 00  Length = 230000 BitCount = 119 ID = 1056
   0.084552 1  153             Rx   d 8 00 00 10 FF 00 FF 50 5E  Length = 232000 BitCount = 120 ID = 339
   0.084790 1  220             Rx   d 8 12 04 81 30 00 F7 0F 84  Length = 230000 BitCount = 119 ID = 544
   0.085034 1  394             Rx   d 8 00 A0 00 00 FF 83 1C 82  Length = 236000 BitCount = 122 ID = 916
   0.085276 1  421             Rx   d 8 00 00 00 FF E3 7F 20 BE  Length = 234000 BitCount = 121 ID = 1057
   0.089440 1  386             Rx   d 8 00 00 00 40 00 40 00 80  Length = 238000 BitCount = 123 ID = 902
   0.089608 1  164             Rx   d 4 00 08 14 1C  Length = 160000 BitCount = 84 ID = 356
   0.089792 1  2B0             Rx   d 5 02 01 00 07 AE  Length = 176000 BitCount = 92 ID = 688
   0.090025 1  111             Rx   d 8 00 40 61 FF 7B FB 0A 98  Length = 224000 BitCount = 116 ID = 273
   0.090263 1  112             Rx   d 8 FF A0 00 00 FF FB 0A 00  Length = 230000 BitCount = 119 ID = 274
   0.090507 1  113             Rx   d 8 00 20 00 80 00 00 01 D8  Length = 236000 BitCount = 122 ID = 275
   0.090749 1  18F             Rx   d 8 FA 50 00 00 00 48 00 20  Length = 234000 BitCount = 121 ID = 399
   0.091000 1  1BF             Rx   d 8 00 00 00 00 00 00 00 00  Length = 242000 BitCount = 125 ID = 447
   0.091212 1  200             Rx   d 6 71 00 9F 00 00 00  Length = 204000 BitCount = 106 ID = 512
   0.091448 1  251             Rx   d 8 02 04 BE 4D 00 01 08 80  Length = 228000 BitCount = 118 ID = 593
   0.091687 1  260             Rx   d 8 0C 17 17 30 00 C7 64 13  Length = 230000 BitCount = 119 ID = 608
   0.091915 1  316             Rx   d 8 65 17 6C 0B 17 16 00 6D  Length = 220000 BitCount = 114 ID = 790
   0.092157 1  329             Rx   d 8 0F B5 7C 0C 11 20 00 14  Length = 234000 BitCount = 121 ID = 809
   0.092365 1  374             Rx   d 6 5C 0B 00 00 00 00  Length = 200000 BitCount = 104 ID = 884
   0.092605 1  381             Rx   d 8 80 08 40 00 00 DF AC 05  Length = 232000 BitCount = 120 ID = 897
   0.092846 1  340             Rx   d 8 00 00 00 24 B4 00 E8 10  Length = 232000 BitCount = 120 ID = 832
   0.093018 1  436             Rx   d 4 00 00 00 00  Length = 164000 BitCount = 86 ID = 1078
   0.094350 1  153             Rx   d 8 00 00 10 FF 00 FF 60 6E  Length = 232000 BitCount = 120 ID = 339
   0.094586 1  220             Rx   d 8 14 E4 80 30 00 F5 0F 95  Length = 228000 BitCount = 118 ID = 544
   0.094790 1  47F             Rx   d 6 00 F5 FF FA 00 00  Length = 196000 BitCount = 102 ID = 1151
   0.095014 1  490             Rx   d 7 00 00 08 21 00 00 3C  Length = 216000 BitCount = 112 ID = 1168
   0.095186 1  507             Rx   d 4 00 00 00 01  Length = 164000 BitCount = 86 ID = 1287
   0.099312 1  387             Rx   d 6 58 3D 0B 08 00 A8  Length = 190000 BitCount = 99 ID = 903
   0.099478 1  164             Rx   d 4 00 08 16 1E  Length = 158000 BitCount = 83 ID = 356
   0.099698 1  4F1             Rx   d 4 20 00 0A 70  Length = 156000 BitCount = 82 ID = 1265
   0.099933 1  111             Rx   d 8 00 40 61 FF 7B 02 0B CC  Length = 226000 BitCount = 117 ID = 273
   0.100175 1  112             Rx   d 8 FF F0 00 00 FF 02 0B 00  Length = 234000 BitCount = 121 ID = 274
   0.100419 1  113             Rx   d 8 00 20 00 80 00 00 01 9C  Length = 236000 BitCount = 122 ID = 275
   0.100662 1  251             Rx   d 8 03 04 BF 50 00 02 08 80  Length = 234000 BitCount = 121 ID = 593
   0.100904 1  18F             Rx   d 8 FA 50 00 00 00 48 00 20  Length = 234000 BitCount = 121 ID = 399
   0.101154 1  1BF             Rx   d 8 00 00 00 00 00 00 00 00  Length = 242000 BitCount = 125 ID = 447
   0.101367 1  200             Rx   d 6 00 00 9F 00 00 00  Length = 204000 BitCount = 106 ID = 512
   0.101599 1  260             Rx   d 8 0C 17 17 30 00 C7 64 22  Length = 224000 BitCount = 116 ID = 608
   0.101785 1  2B0             Rx   d 5 02 01 00 07 BF  Length = 178000 BitCount = 93 ID = 688
   0.102014 1  316             Rx   d 8 65 17 6C 0B 17 16 00 6D  Length = 220000 BitCount = 114 ID = 790
   0.102256 1  329             Rx   d 8 0F B5 7C 0C 11 20 00 14  Length = 234000 BitCount = 121 ID = 809
   0.102462 1  374             Rx   d 6 6C 0B 00 00 00 00  Length = 198000 BitCount = 103 ID = 884
   0.102698 1  383             Rx   d 8 2E 2B 85 69 70 00 00 99  Length = 228000 BitCount = 118 ID = 899
   0.102944 1  340             Rx   d 8 00 00 00 24 C4 00 F8 10  Length = 238000 BitCount = 123 ID = 832
   0.104206 1  420             Rx   d 8 B0 00 20 C8 FE 4F 6A 00  Length = 228000 BitCount = 118 ID = 1056
   0.104450 1  153             Rx   d 8 00 00 10 FF 00 FF 70 7E  Length = 236000 BitCount = 122 ID = 339
   0.104689 1  220             Rx   d 8 15 C4 80 30 00 FD 0F AC  Length = 230000 BitCount = 119 ID = 544
   0.104933 1  394             Rx   d 8 00 C0 00 00 FF 83 1A 82  Length = 236000 BitCount = 122 ID = 916
   0.105175 1  421             Rx   d 8 00 00 00 FF E3 7F 20 90  Length = 234000 BitCount = 121 ID = 1057
   0.109433 1  386             Rx   d 8 00 40 00 40 00 40 00 80  Length = 238000 BitCount = 123 ID = 902
   0.109607 1  164             Rx   d 4 00 08 18 10  Length = 166000 BitCount = 87 ID = 356
   0.109843 1  251             Rx   d 8 03 04 C0 51 00 02 08 80  Length = 228000 BitCount = 118 ID = 593
   0.110078 1  111             Rx   d 8 00 40 61 FF 7B 01 0B 90  Length = 226000 BitCount = 117 ID = 273
   0.110318 1  112             Rx   d 8 FF 00 00 00 FF 01 0B 00  Length = 232000 BitCount = 120 ID = 274
   0.110560 1  113             Rx   d 8 00 20 00 80 00 00 01 50  Length = 234000 BitCount = 121 ID = 275
   0.110802 1  18F             Rx   d 8 FA 50 00 00 00 48 00 20  Length = 234000 BitCount = 121 ID = 399
   0.111053 1  1BF             Rx   d 8 00 00 00 00 00 00 00 00  Length = 242000 BitCount = 125 ID = 447
   0.111265 1  200             Rx   d 6 00 00 9F 00 00 00  Length = 204000 BitCount = 106 ID = 512
   0.111501 1  260             Rx   d 8 0C 17 17 30 00 C7 65 30  Length = 228000 BitCount = 118 ID = 608
   0.111691 1  2B0             Rx   d 5 00 01 00 07 60  Length = 182000 BitCount = 95 ID = 688
   0.111920 1  316             Rx   d 8 65 17 6C 0B 17 16 00 6D  Length = 220000 BitCount = 114 ID = 790
   0.112162 1  329             Rx   d 8 0F B5 7C 0C 11 20 00 14  Length = 234000 BitCount = 121 ID = 809
   0.112368 1  374             Rx   d 6 6C 0B 00 00 00 00  Length = 198000 BitCount = 103 ID = 884
   0.112610 1  381             Rx   d 8 80 10 40 00 00 E0 B5 05  Length = 234000 BitCount = 121 ID = 897
   0.112853 1  340             Rx   d 8 00 00 00 24 D4 00 08 10  Length = 234000 BitCount = 121 ID = 832
   0.113091 1  492             Rx   d 8 00 00 70 2E A8 80 6E FC  Length = 230000 BitCount = 119 ID = 1170
   0.113327 1  4E5             Rx   d 8 80 6E 00 04 48 C3 00 00  Length = 228000 BitCount = 118 ID = 1253
   0.113557 1  4E6             Rx   d 8 48 C3 00 00 85 85 8C BA  Length = 222000 BitCount = 115 ID = 1254
   0.113801 1  4E7             Rx   d 8 1D 7C 00 08 00 82 00 00  Length = 236000 BitCount = 122 ID = 1255
   0.114042 1  545             Rx   d 8 D0 79 00 8C 00 00 00 C0  Length = 232000 BitCount = 120 ID = 1349
   0.114276 1  547             Rx   d 8 00 00 91 3F 4C 01 2D 00  Length = 226000 BitCount = 117 ID = 1351
   0.114514 1  153             Rx   d 8 00 00 10 FF 00 FF 80 8E  Length = 230000 BitCount = 119 ID = 339
   0.114752 1  220             Rx   d 8 14 E4 80 30 00 FE 0F BC  Length = 230000 BitCount = 119 ID = 544
   0.114958 1  47F             Rx   d 6 00 F6 FF FA 00 00  Length = 198000 BitCount = 103 ID = 1151
   0.115186 1  549             Rx   d 8 C3 82 61 6F 60 26 61 5F  Length = 220000 BitCount = 114 ID = 1353
   0.115424 1  556             Rx   d 8 1D 7F 6C 0B 00 1F 02 00  Length = 230000 BitCount = 119 ID = 1366
   0.115665 1  557             Rx   d 8 7F 83 00 00 2F 69 04 00  Length = 232000 BitCount = 120 ID = 1367
   0.115893 1  5CE             Rx   d 8 54 54 76 2E 01 00 59 05  Length = 220000 BitCount = 114 ID = 1486
   0.116129 1  5CF             Rx   d 8 40 06 00 00 34 93 7A 00  Length = 228000 BitCount = 118 ID = 1487
   0.119311 1  387             Rx   d 6 58 3D 0B 08 00 A8  Length = 190000 BitCount = 99 ID = 903
   0.119477 1  164             Rx   d 4 00 08 1A 12  Length = 158000 BitCount = 83 ID = 356
   0.119701 1  2B0             Rx   d 5 02 01 00 07 51  Length = 176000 BitCount = 92 ID = 688
   0.119934 1  111             Rx   d 8 00 40 61 FF 7B 01 0B 54  Length = 224000 BitCount = 116 ID = 273
   0.120174 1  112             Rx   d 8 FF 50 00 00 FF 01 0B 00  Length = 232000 BitCount = 120 ID = 274
   0.120416 1  113             Rx   d 8 00 20 00 80 00 00 01 14  Length = 234000 BitCount = 121 ID = 275
   0.120659 1  251             Rx   d 8 01 04 C1 3E 00 01 F8 7F  Length = 234000 BitCount = 121 ID = 593
   0.120901 1  18F             Rx   d 8 FA 50 00 00 00 48 00 20  Length = 234000 BitCount = 121 ID = 399
   0.121151 1  1BF             Rx   d 8 00 00 00 00 00 00 00 00  Length = 242000 BitCount = 125 ID = 447
   0.121363 1  200             Rx   d 6 00 00 9F 00 00 00  Length = 204000 BitCount = 106 ID = 512
   0.121598 1  260             Rx   d 8 0C 17 17 30 00 C7 65 03  Length = 226000 BitCount = 117 ID = 608
   0.121826 1  316             Rx   d 8 65 17 6C 0B 17 16 00 6D  Length = 220000 BitCount = 114 ID = 790
   0.122068 1  329             Rx   d 8 0F B5 7C 0C 11 20 00 14  Length = 234000 BitCount = 121 ID = 809
   0.122274 1  374             Rx   d 6 6C 0B 00 00 00 00  Length = 198000 BitCount = 103 ID = 884
   0.122510 1  383             Rx   d 8 2E 2B 95 69 70 00 00 89  Length = 228000 BitCount = 118 ID = 899
   0.122752 1  340             Rx   d 8 00 00 00 24 E4 00 18 10  Length = 234000 BitCount = 121 ID = 832
   0.122920 1  4F1             Rx   d 4 20 00 0A 80  Length = 160000 BitCount = 84 ID = 1265
   0.123036 1  500             Rx   d 1 00  Length = 108000 BitCount = 58 ID = 1280
   0.123189 1  586             Rx   d 3 00 00 00  Length = 144000 BitCount = 76 ID = 1414
   0.124343 1  153             Rx   d 8 00 00 10 FF 00 FF 90 9E  Length = 228000 BitCount = 118 ID = 339
   0.124581 1  220             Rx   d 8 13 24 81 30 00 01 10 C0  Length = 230000 BitCount = 119 ID = 544
   0.124825 1  394             Rx   d 8 00 E0 00 00 FF 83 18 82  Length = 236000 BitCount = 122 ID = 916
   0.125063 1  420             Rx   d 8 C0 00 20 C8 FE 4F 6A 00  Length = 230000 BitCount = 119 ID = 1056
   0.125331 1  421             Rx   d 8 00 00 00 FF E3 7F 20 81  Length = 234000 BitCount = 121 ID = 1057
   0.127712 1  58B             Rx   d 8 11 00 04 00 00 00 00 20  Length = 240000 BitCount = 124 ID = 1419
   0.129432 1  386             Rx   d 8 00 80 00 40 00 40 00 80  Length = 240000 BitCount = 124 ID = 902
   0.129602 1  164             Rx   d 4 00 08 1C 14  Length = 162000 BitCount = 85 ID = 356
   0.129838 1  251             Rx   d 8 01 04 C2 50 00 01 08 80  Length = 228000 BitCount = 118 ID = 593
   0.130069 1  111             Rx   d 8 00 40 61 FF 7B 11 0B 08  Length = 222000 BitCount = 115 ID = 273
   0.130305 1  112             Rx   d 8 FF A0 00 00 FF 11 0B 00  Length = 228000 BitCount = 118 ID = 274
   0.130549 1  113             Rx   d 8 00 20 00 80 00 00 01 D8  Length = 236000 BitCount = 122 ID = 275
   0.130791 1  18F             Rx   d 8 FA 50 00 00 00 48 00 20  Length = 234000 BitCount = 121 ID = 399
   0.131041 1  1BF             Rx   d 8 00 00 00 00 00 00 00 00  Length = 242000 BitCount = 125 ID = 447
   0.131253 1  200             Rx   d 6 70 00 9F 00 00 00  Length = 204000 BitCount = 106 ID = 512
   0.131490 1  260             Rx   d 8 0C 17 17 30 00 C7 66 11  Length = 228000 BitCount = 118 ID = 608
   0.131676 1  2B0             Rx   d 5 01 01 00 07 52  Length = 178000 BitCount = 93 ID = 688
   0.131904 1  316             Rx   d 8 65 17 60 0B 17 16 00 6D  Length = 220000 BitCount = 114 ID = 790
   0.132146 1  329             Rx   d 8 0F B5 7C 0C 11 20 00 14  Length = 234000 BitCount = 121 ID = 809
   0.132353 1  374             Rx   d 6 6C 0B 00 00 00 00  Length = 198000 BitCount = 103 ID = 884
   0.132591 1  381             Rx   d 8 80 08 40 00 00 E1 AE 05  Length = 230000 BitCount = 119 ID = 897
   0.132831 1  340             Rx   d 8 00 00 00 24 F4 00 28 10  Length = 232000 BitCount = 120 ID = 832
   0.134347 1  153             Rx   d 8 00 00 10 FF 00 FF A0 AE  Length = 230000 BitCount = 119 ID = 339
   0.134583 1  220             Rx   d 8 12 24 81 30 00 01 10 D1  Length = 228000 BitCount = 118 ID = 544
   0.134792 1  47F             Rx   d 6 00 F7 FF FA 00 00  Length = 200000 BitCount = 104 ID = 1151
   0.139311 1  387             Rx   d 6 58 3D 0B 08 00 A8  Length = 190000 BitCount = 99 ID = 903
   0.139478 1  164             Rx   d 4 00 08 1E 16  Length = 158000 BitCount = 83 ID = 356
   0.139684 1  4F1             Rx   d 4 00 00 0A 90  Length = 158000 BitCount = 83 ID = 1265
   0.139922 1  111             Rx   d 8 00 40 61 FF 7B FF 0A 1C  Length = 230000 BitCount = 119 ID = 273
   0.140166 1  112             Rx   d 8 FF F0 00 00 FF FF 0A 00  Length = 236000 BitCount = 122 ID = 274
   0.140411 1  113             Rx   d 8 00 20 00 80 00 00 01 9C  Length = 236000 BitCount = 122 ID = 275
   0.140647 1  251             Rx   d 8 03 04 C3 54 00 02 08 80  Length = 228000 BitCount = 118 ID = 593
   0.140889 1  18F             Rx   d 8 FA 50 00 00 00 48 00 20  Length = 234000 BitCount = 121 ID = 399
   0.141140 1  1BF             Rx   d 8 00 00 00 00 00 00 00 00  Length = 242000 BitCount = 125 ID = 447
   0.141352 1  200             Rx   d 6 00 00 9F 00 00 00  Length = 204000 BitCount = 106 ID = 512
   0.141590 1  260             Rx   d 8 0C 17 17 30 00 C7 67 2F  Length = 230000 BitCount = 119 ID = 608
   0.141776 1  2B0             Rx   d 5 01 01 00 07 43  Length = 178000 BitCount = 93 ID = 688
   0.142005 1  316             Rx   d 8 65 17 60 0B 17 16 00 6D  Length = 220000 BitCount = 114 ID = 790
   0.142247 1  329             Rx   d 8 0F B5 7C 0C 11 20 00 14  Length = 234000 BitCount = 121 ID = 809
   0.142453 1  374             Rx   d 6 60 0B 00 00 00 00  Length = 198000 BitCount = 103 ID = 884
   0.142687 1  383             Rx   d 8 2E 2B A5 69 70 00 00 B9  Length = 226000 BitCount = 117 ID = 899
   0.142931 1  340             Rx   d 8 00 00 00 24 04 00 38 10  Length = 236000 BitCount = 122 ID = 832
   0.143103 1  436             Rx   d 4 00 00 00 00  Length = 164000 BitCount = 86 ID = 1078
   0.143378 1  520             Rx   d 8 00 00 00 00 00 00 00 00  Length = 244000 BitCount = 126 ID = 1312
   0.143646 1  541             Rx   d 8 03 01 81 00 00 00 00 00  Length = 238000 BitCount = 123 ID = 1345
   0.144186 1  420             Rx   d 8 D0 00 20 C8 FE 4F 6A 00  Length = 226000 BitCount = 117 ID = 1056
   0.144424 1  153             Rx   d 8 00 00 10 FF 00 FF B0 BE  Length = 230000 BitCount = 119 ID = 339
   0.144662 1  220             Rx   d 8 13 24 81 3C 00 FD 0F E9  Length = 230000 BitCount = 119 ID = 544
   0.144909 1  394             Rx   d 8 00 00 00 00 FF 83 16 82  Length = 238000 BitCount = 123 ID = 916
   0.145149 1  421             Rx   d 8 00 00 00 FF E3 7F 20 72  Length = 232000 BitCount = 120 ID = 1057
   0.145373 1  490             Rx   d 7 00 00 08 21 00 00 3C  Length = 216000 BitCount = 112 ID = 1168
   0.149427 1  386             Rx   d 8 00 C0 00 40 00 40 00 80  Length = 236000 BitCount = 122 ID = 902
   0.149597 1  164             Rx   d 4 00 08 00 08  Length = 162000 BitCount = 85 ID = 356
   0.149861 1  381             Rx   d 8 80 18 40 00 00 E2 BF 05  Length = 234000 BitCount = 121 ID = 897
   0.150096 1  111             Rx   d 8 00 40 61 FF 7B 07 0B 30  Length = 226000 BitCount = 117 ID = 273
   0.150336 1  112             Rx   d 8 FF 00 00 00 FF 07 0B 00  Length = 232000 BitCount = 120 ID = 274
   0.150578 1  113             Rx   d 8 00 20 00 80 00 00 01 50  Length = 234000 BitCount = 121 ID = 275
   0.150820 1  18F             Rx   d 8 FA 50 00 00 00 48 00 20  Length = 234000 BitCount = 121 ID = 399
   0.151071 1  1BF             Rx   d 8 00 00 00 00 00 00 00 00  Length = 242000 BitCount = 125 ID = 447
   0.151283 1  200             Rx   d 6 00 00 9F 00 00 00  Length = 204000 BitCount = 106 ID = 512
   0.151517 1  251             Rx   d 8 04 04 C4 57 00 03 08 80  Length = 226000 BitCount = 117 ID = 593
   0.151752 1  260             Rx   d 8 0C 17 17 30 00 C7 66 3F  Length = 226000 BitCount = 117 ID = 608
   0.151938 1  2B0             Rx   d 5 02 01 00 07 04  Length = 178000 BitCount = 93 ID = 688
   0.152166 1  316             Rx   d 8 65 17 60 0B 17 16 00 6D  Length = 220000 BitCount = 114 ID = 790
   0.152408 1  329             Rx   d 8 0F B5 7C 0C 11 20 00 14  Length = 234000 BitCount = 121 ID = 809
   0.152615 1  374             Rx   d 6 60 0B 00 00 00 00  Length = 198000 BitCount = 103 ID = 884
   0.152861 1  340             Rx   d 8 00 00 00 24 14 00 48 10  Length = 238000 BitCount = 123 ID = 832
   0.153097 1  555             Rx   d 8 9F 00 00 00 18 85 91 AF  Length = 228000 BitCount = 118 ID = 1365
   0.154347 1  153             Rx   d 8 00 00 10 FF 00 FF C0 CE  Length = 232000 BitCount = 120 ID = 339
   0.154583 1  220             Rx   d 8 13 24 81 30 00 F9 0F F9  Length = 228000 BitCount = 118 ID = 544
   0.154789 1  47F             Rx   d 6 00 F8 FF FA 00 00  Length = 198000 BitCount = 103 ID = 1151
   0.159311 1  387             Rx   d 6 58 3D 0B 08 00 A8  Length = 190000 BitCount = 99 ID = 903
   0.159479 1  164             Rx   d 4 00 08 02 0A  Length = 160000 BitCount = 84 ID = 356
   0.159685 1  4F1             Rx   d 4 00 00 0A A0  Length = 160000 BitCount = 84 ID = 1265
   0.159920 1  111             Rx   d 8 00 40 61 FF 7B 0D 0B 94  Length = 226000 BitCount = 117 ID = 273
   0.160160 1  112             Rx   d 8 FF 50 00 00 FF 0D 0B 00  Length = 232000 BitCount = 120 ID = 274
   0.160402 1  113             Rx   d 8 00 20 00 80 00 00 01 14  Length = 234000 BitCount = 121 ID = 275
   0.160640 1  251             Rx   d 8 03 04 C5 56 00 02 08 80  Length = 230000 BitCount = 119 ID = 593
   0.160883 1  18F             Rx   d 8 FA 50 00 00 00 48 00 20  Length = 234000 BitCount = 121 ID = 399
   0.161133 1  1BF             Rx   d 8 00 00 00 00 00 00 00 00  Length = 242000 BitCount = 125 ID = 447
   0.161345 1  200             Rx   d 6 00 00 9F 00 00 00  Length = 204000 BitCount = 106 ID = 512
   0.161579 1  260             Rx   d 8 0C 17 17 30 00 C7 66 02  Length = 226000 BitCount = 117 ID = 608
   0.161765 1  2B0             Rx   d 5 00 01 00 07 35  Length = 178000 BitCount = 93 ID = 688
   0.161994 1  316             Rx   d 8 65 17 60 0B 17 16 00 6D  Length = 220000 BitCount = 114 ID = 790
   0.162236 1  329             Rx   d 8 0F B5 7C 0C 11 20 00 14  Length = 234000 BitCount = 121 ID = 809
   0.162442 1  374             Rx   d 6 60 0B 00 00 00 00  Length = 198000 BitCount = 103 ID = 884
   0.162676 1  383             Rx   d 8 2E 2B B5 69 70 00 00 A9  Length = 226000 BitCount = 117 ID = 899
   0.162916 1  340             Rx   d 8 00 00 00 24 24 00 58 10  Length = 232000 BitCount = 120 ID = 832
   0.163153 1  492             Rx   d 8 00 00 70 2E A8 80 6E B0  Length = 228000 BitCount = 118 ID = 1170
   0.163327 1  502             Rx   d 4 00 00 04 20  Length = 166000 BitCount = 87 ID = 1282
   0.163541 1  53E             Rx   d 6 00 00 00 00 20 00  Length = 206000 BitCount = 107 ID = 1342
   0.164347 1  153             Rx   d 8 00 00 10 FF 00 FF D0 DE  Length = 230000 BitCount = 119 ID = 339
   0.164589 1  220             Rx   d 8 12 44 81 30 00 FE 0F 0D  Length = 234000 BitCount = 121 ID = 544
   0.164832 1  394             Rx   d 8 00 20 00 00 FF 83 14 82  Length = 234000 BitCount = 121 ID = 916
   0.165068 1  420             Rx   d 8 E0 00 20 C8 FE 4F 6A 00  Length = 228000 BitCount = 118 ID = 1056
   0.165336 1  421             Rx   d 8 00 00 00 FF E3 7F 20 63  Length = 234000 BitCount = 121 ID = 1057
   0.169428 1  386             Rx   d 8 00 00 00 80 00 40 00 80  Length = 236000 BitCount = 122 ID = 902
   0.169596 1  164             Rx   d 4 00 08 04 0C  Length = 160000 BitCount = 84 ID = 356
   0.169856 1  111             Rx   d 8 00 40 61 FF 7B 06 0B C8  Length = 226000 BitCount = 117 ID = 273
   0.170096 1  112             Rx   d 8 FF A0 00 00 FF 06 0B 00  Length = 232000 BitCount = 120 ID = 274
   0.170341 1  113             Rx   d 8 00 20 00 80 00 00 01 D8  Length = 236000 BitCount = 122 ID = 275
   0.170577 1  251             Rx   d 8 03 04 C6 57 00 02 08 80  Length = 228000 BitCount = 118 ID = 593
   0.170819 1  18F             Rx   d 8 FA 50 00 00 00 48 00 20  Length = 234000 BitCount = 121 ID = 399
   0.171069 1  1BF             Rx   d 8 00 00 00 00 00 00 00 00  Length = 242000 BitCount = 125 ID = 447
   0.171282 1  200             Rx   d 6 70 00 9F 00 00 00  Length = 204000 BitCount = 106 ID = 512
   0.171518 1  260             Rx   d 8 0C 17 17 30 00 C7 67 10  Length = 228000 BitCount = 118 ID = 608
   0.171702 1  2B0             Rx   d 5 02 01 00 07 26  Length = 176000 BitCount = 92 ID = 688
   0.171931 1  316             Rx   d 8 65 17 60 0B 17 16 00 6D  Length = 220000 BitCount = 114 ID = 790
   0.172167 1  329             Rx   d 8 40 B5 7C 0C 11 20 00 14  Length = 228000 BitCount = 118 ID = 809
   0.172373 1  374             Rx   d 6 60 0B 00 00 00 00  Length = 198000 BitCount = 103 ID = 884
   0.172613 1  381             Rx   d 8 80 10 40 00 00 E3 B8 05  Length = 232000 BitCount = 120 ID = 897
   0.172853 1  340             Rx   d 8 00 00 00 24 34 00 68 10  Length = 232000 BitCount = 120 ID = 832
   0.174350 1  153             Rx   d 8 00 00 10 FF 00 FF E0 EE  Length = 236000 BitCount = 122 ID = 339
   0.174588 1  220             Rx   d 8 12 24 81 30 00 FC 0F 1B  Length = 230000 BitCount = 119 ID = 544
   0.174796 1  47F             Rx   d 6 00 F9 FF FA 00 00  Length = 200000 BitCount = 104 ID = 1151
   0.174930 1  591             Rx   d 2 02 00  Length = 126000 BitCount = 67 ID = 1425
   0.176862 1  58B             Rx   d 8 11 00 04 00 00 00 00 20  Length = 240000 BitCount = 124 ID = 1419
   0.177070 1  593             Rx   d 6 00 00 FF FF FF FF  Length = 200000 BitCount = 104 ID = 1427
   0.179309 1  387             Rx   d 6 58 3D 0B 08 00 A8  Length = 190000 BitCount = 99 ID = 903
   0.179477 1  164             Rx   d 4 00 08 06 0E  Length = 160000 BitCount = 84 ID = 356
   0.179715 1  2B0             Rx   d 5 01 01 00 07 07  Length = 178000 BitCount = 93 ID = 688
   0.179950 1  111             Rx   d 8 00 40 61 FF 7B 0C 0B 2C  Length = 226000 BitCount = 117 ID = 273
   0.180190 1  112             Rx   d 8 FF F0 00 00 FF 0C 0B 00  Length = 232000 BitCount = 120 ID = 274
   0.180434 1  113             Rx   d 8 00 20 00 80 00 00 01 9C  Length = 236000 BitCount = 122 ID = 275
   0.180666 1  251             Rx   d 8 03 04 C7 59 00 03 08 80  Length = 224000 BitCount = 116 ID = 593
   0.180909 1  18F             Rx   d 8 FA 50 00 00 00 48 00 20  Length = 234000 BitCount = 121 ID = 399
   0.181159 1  1BF             Rx   d 8 00 00 00 00 00 00 00 00  Length = 242000 BitCount = 125 ID = 447
   0.181411 1  40              Rx   d 8 00 00 11 04 00 00 00 00  Length = 244000 BitCount = 126 ID = 64
   0.181653 1  42              Rx   d 8 FF 09 FF 09 00 00 00 00  Length = 234000 BitCount = 121 ID = 66
   0.181897 1  43              Rx   d 8 15 40 00 02 03 00 00 70  Length = 236000 BitCount = 122 ID = 67
   0.182141 1  44              Rx   d 8 02 00 00 FF 61 00 00 00  Length = 236000 BitCount = 122 ID = 68
   0.182353 1  200             Rx   d 6 00 00 9F 00 00 00  Length = 204000 BitCount = 106 ID = 512
   0.182588 1  260             Rx   d 8 0C 17 17 30 00 C7 68 2E  Length = 226000 BitCount = 117 ID = 608
   0.182816 1  316             Rx   d 8 65 17 60 0B 17 16 00 6D  Length = 220000 BitCount = 114 ID = 790
   0.183052 1  329             Rx   d 8 40 B5 7C 0C 11 20 00 14  Length = 228000 BitCount = 118 ID = 809
   0.183294 1  340             Rx   d 8 00 00 00 24 44 00 78 10  Length = 234000 BitCount = 121 ID = 832
   0.183501 1  374             Rx   d 6 60 0B 00 00 00 00  Length = 198000 BitCount = 103 ID = 884
   0.183737 1  383             Rx   d 8 2E 2B C5 69 70 00 00 D9  Length = 228000 BitCount = 118 ID = 899
   0.183903 1  4F1             Rx   d 4 20 00 0A B0  Length = 158000 BitCount = 83 ID = 1265
   0.184139 1  420             Rx   d 8 F0 00 20 C8 FE 4F 6A 00  Length = 228000 BitCount = 118 ID = 1056
   0.184379 1  153             Rx   d 8 00 00 10 FF 00 FF 00 0E  Length = 232000 BitCount = 120 ID = 339
   0.184621 1  220             Rx   d 8 13 E4 80 30 00 FE 0F 2D  Length = 234000 BitCount = 121 ID = 544
   0.184863 1  394             Rx   d 8 00 40 00 00 FF 83 12 82  Length = 234000 BitCount = 121 ID = 916
   0.185104 1  421             Rx   d 8 00 00 00 FF E3 7F 20 54  Length = 232000 BitCount = 120 ID = 1057
   0.185342 1  50C             Rx   d 8 10 19 00 E9 18 10 02 C8  Length = 230000 BitCount = 119 ID = 1292
   0.185594 1  533             Rx   d 8 FF 1F 1F FF FF FF FF 00  Length = 236000 BitCount = 122 ID = 1331
   0.185850 1  534             Rx   d 8 FF FF FF FF FF FF 0F 00  Length = 240000 BitCount = 124 ID = 1332
   0.186104 1  535             Rx   d 8 07 FF FF FF FF FF FF FF  Length = 238000 BitCount = 123 ID = 1333
   0.186283 1  5B0             Rx   d 4 12 5D 00 00  Length = 162000 BitCount = 85 ID = 1456
   0.189435 1  386             Rx   d 8 00 40 00 80 00 40 00 80  Length = 236000 BitCount = 122 ID = 902
   0.189607 1  164             Rx   d 4 00 08 08 00  Length = 164000 BitCount = 86 ID = 356
   0.189847 1  381             Rx   d 8 80 18 40 00 00 E4 C1 05  Length = 232000 BitCount = 120 ID = 897
   0.190080 1  111             Rx   d 8 00 40 61 FF 7B 0F 0B B0  Length = 224000 BitCount = 116 ID = 273
   0.190318 1  112             Rx   d 8 FF 00 00 00 FF 0F 0B 00  Length = 230000 BitCount = 119 ID = 274
   0.190560 1  113             Rx   d 8 00 20 00 80 00 00 01 50  Length = 234000 BitCount = 121 ID = 275
   0.190802 1  18F             Rx   d 8 FA 50 00 00 00 48 00 20  Length = 234000 BitCount = 121 ID = 399
   0.191052 1  1BF             Rx   d 8 00 00 00 00 00 00 00 00  Length = 242000 BitCount = 125 ID = 447
   0.191265 1  200             Rx   d 6 00 00 9F 00 00 00  Length = 204000 BitCount = 106 ID = 512
   0.191499 1  251             Rx   d 8 04 04 C8 5B 00 03 08 80  Length = 226000 BitCount = 117 ID = 593
   0.191731 1  260             Rx   d 8 0C 17 17 30 00 C7 69 3C  Length = 224000 BitCount = 116 ID = 608
   0.191918 1  2B0             Rx   d 5 01 01 00 07 F8  Length = 178000 BitCount = 93 ID = 688
   0.192146 1  316             Rx   d 8 65 17 60 0B 17 16 00 6D  Length = 220000 BitCount = 114 ID = 790
   0.192382 1  329             Rx   d 8 40 B5 7C 0C 11 20 00 14  Length = 228000 BitCount = 118 ID = 809
   0.192589 1  374             Rx   d 6 60 0B 00 00 00 00  Length = 198000 BitCount = 103 ID = 884
   0.192831 1  340             Rx   d 8 00 00 00 24 54 00 88 10  Length = 234000 BitCount = 121 ID = 832
   0.193003 1  436             Rx   d 4 00 00 00 00  Length = 164000 BitCount = 86 ID = 1078
   0.194347 1  153             Rx   d 8 00 00 10 FF 00 FF 10 1E  Length = 232000 BitCount = 120 ID = 339
   0.194587 1  220             Rx   d 8 14 E4 80 3C 00 FA 0F 34  Length = 232000 BitCount = 120 ID = 544
   0.194794 1  47F             Rx   d 6 00 FA FF FA 00 00  Length = 198000 BitCount = 103 ID = 1151
   0.195018 1  490             Rx   d 7 00 00 08 21 00 00 3C  Length = 216000 BitCount = 112 ID = 1168
   0.195190 1  507             Rx   d 4 00 00 00 01  Length = 164000 BitCount = 86 ID = 1287
   0.199308 1  387             Rx   d 6 58 3D 0B 08 00 A8  Length = 190000 BitCount = 99 ID = 903
   0.199476 1  164             Rx   d 4 00 08 0A 02  Length = 160000 BitCount = 84 ID = 356
   0.199820 1  2B0             Rx   d 5 02 01 00 07 D9  Length = 180000 BitCount = 94 ID = 688
   0.200053 1  111             Rx   d 8 00 40 61 FF 7B 09 0B D4  Length = 224000 BitCount = 116 ID = 273
   0.200289 1  112             Rx   d 8 FF 50 00 00 FF 09 0B 00  Length = 228000 BitCount = 118 ID = 274
   0.200531 1  113             Rx   d 8 00 20 00 80 00 00 01 14  Length = 234000 BitCount = 121 ID = 275
   0.200773 1  18F             Rx   d 8 FA 50 00 00 00 48 00 20  Length = 234000 BitCount = 121 ID = 399
   0.201023 1  1BF             Rx   d 8 00 00 00 00 00 00 00 00  Length = 242000 BitCount = 125 ID = 447
   0.201236 1  200             Rx   d 6 00 00 9F 00 00 00  Length = 204000 BitCount = 106 ID = 512
   0.201474 1  251             Rx   d 8 03 04 C9 5A 00 02 08 80  Length = 230000 BitCount = 119 ID = 593
   0.201708 1  260             Rx   d 8 0C 17 17 30 00 C7 67 01  Length = 226000 BitCount = 117 ID = 608
   0.201937 1  316             Rx   d 8 65 17 60 0B 17 16 00 6D  Length = 220000 BitCount = 114 ID = 790
   0.202173 1  329             Rx   d 8 40 B5 7C 0C 11 20 00 14  Length = 228000 BitCount = 118 ID = 809
   0.202379 1  374             Rx   d 6 60 0B 00 00 00 00  Length = 198000 BitCount = 103 ID = 884
   0.202613 1  383             Rx   d 8 2E 2B D5 69 70 00 00 C9  Length = 226000 BitCount = 117 ID = 899
   0.202855 1  340             Rx   d 8 00 00 00 24 64 00 98 10  Length = 234000 BitCount = 121 ID = 832
   0.203023 1  4F1             Rx   d 4 00 00 0A C0  Length = 160000 BitCount = 84 ID = 1265
   0.203275 1  544             Rx   d 8 FF 77 FF FF 00 00 00 00  Length = 236000 BitCount = 122 ID = 1348
   0.203531 1  5BE             Rx   d 8 04 00 00 FF 00 00 00 00  Length = 240000 BitCount = 124 ID = 1470
   0.204335 1  420             Rx   d 8 00 00 20 C8 FE 4F 6A 00  Length = 230000 BitCount = 119 ID = 1056
   0.204574 1  153             Rx   d 8 00 00 10 FF 00 FF 20 2E  Length = 230000 BitCount = 119 ID = 339
   0.204812 1  220             Rx   d 8 15 04 81 3C 00 FD 0F 4B  Length = 230000 BitCount = 119 ID = 544
   0.205054 1  394             Rx   d 8 00 60 00 00 FF 83 10 82  Length = 234000 BitCount = 121 ID = 916
   0.205294 1  421             Rx   d 8 00 00 00 FF E3 7F 20 45  Length = 232000 BitCount = 120 ID = 1057
   0.205562 1  50A             Rx   d 8 2A 00 00 00 00 00 00 00  Length = 240000 BitCount = 124 ID = 1290
   0.209424 1  386             Rx   d 8 00 80 00 80 00 40 00 80  Length = 238000 BitCount = 123 ID = 902
   0.209592 1  164             Rx   d 4 00 08 0C 04  Length = 160000 BitCount = 84 ID = 356
   0.209830 1  381             Rx   d 8 80 08 40 00 00 E5 B2 05  Length = 230000 BitCount = 119 ID = 897
   0.210065 1  111             Rx   d 8 00 40 61 FF 7B 00 0B 28  Length = 226000 BitCount = 117 ID = 273
   0.210305 1  112             Rx   d 8 FF A0 00 00 FF 00 0B 00  Length = 232000 BitCount = 120 ID = 274
   0.210549 1  113             Rx   d 8 00 20 00 80 00 00 01 D8  Length = 236000 BitCount = 122 ID = 275
   0.210792 1  18F             Rx   d 8 FA 50 00 00 00 48 00 20  Length = 234000 BitCount = 121 ID = 399
   0.211042 1  1BF             Rx   d 8 00 00 00 00 00 00 00 00  Length = 242000 BitCount = 125 ID = 447
   0.211254 1  200             Rx   d 6 00 00 9F 00 00 00  Length = 204000 BitCount = 106 ID = 512
   0.211490 1  251             Rx   d 8 02 04 CA 5A 00 02 08 80  Length = 228000 BitCount = 118 ID = 593
   0.211727 1  260             Rx   d 8 0C 17 17 30 00 C7 66 11  Length = 228000 BitCount = 118 ID = 608
   0.211915 1  2B0             Rx   d 5 00 01 00 07 CA  Length = 180000 BitCount = 94 ID = 688
   0.212144 1  316             Rx   d 8 65 17 58 0B 17 16 00 6D  Length = 220000 BitCount = 114 ID = 790
   0.212380 1  329             Rx   d 8 40 B5 7C 0C 11 20 00 14  Length = 228000 BitCount = 118 ID = 809
   0.212586 1  374             Rx   d 6 60 0B 00 00 00 00  Length = 198000 BitCount = 103 ID = 884
   0.212826 1  340             Rx   d 8 00 00 00 24 74 00 A8 10  Length = 232000 BitCount = 120 ID = 832
   0.213062 1  492             Rx   d 8 00 00 70 2E A8 80 6E 74  Length = 228000 BitCount = 118 ID = 1170
   0.213299 1  4E5             Rx   d 8 80 6A 00 04 48 C3 00 00  Length = 228000 BitCount = 118 ID = 1253
   0.213527 1  4E6             Rx   d 8 48 C3 00 00 85 85 8C B9  Length = 220000 BitCount = 114 ID = 1254
   0.213773 1  4E7             Rx   d 8 1E 7C 00 08 00 82 00 00  Length = 238000 BitCount = 123 ID = 1255
   0.214013 1  545             Rx   d 8 D0 79 00 8C 00 00 00 C0  Length = 232000 BitCount = 120 ID = 1349
   0.214247 1  547             Rx   d 8 00 00 91 3F 4C 01 2D 00  Length = 226000 BitCount = 117 ID = 1351
   0.214489 1  153             Rx   d 8 00 00 10 FF 00 FF 30 3E  Length = 234000 BitCount = 121 ID = 339
   0.214727 1  220             Rx   d 8 15 04 81 30 00 0B 10 5C  Length = 230000 BitCount = 119 ID = 544
   0.214936 1  47F             Rx   d 6 00 FB FF FA 00 00  Length = 200000 BitCount = 104 ID = 1151
   0.215166 1  549             Rx   d 8 C2 82 61 74 60 26 61 5F  Length = 222000 BitCount = 115 ID = 1353
   0.215406 1  556             Rx   d 8 1E 7F 60 0B 00 1F 02 00  Length = 232000 BitCount = 120 ID = 1366
   0.215644 1  557             Rx   d 8 7F 83 00 00 2F 66 04 00  Length = 230000 BitCount = 119 ID = 1367
   0.215874 1  5CE             Rx   d 8 54 54 78 2E 01 00 59 05  Length = 222000 BitCount = 115 ID = 1486
   0.216108 1  5CF             Rx   d 8 40 06 00 00 33 93 7B 00  Length = 226000 BitCount = 117 ID = 1487
   0.219304 1  387             Rx   d 6 58 3D 0B 08 00 A8  Length = 190000 BitCount = 99 ID = 903
   0.219472 1  164             Rx   d 4 00 08 0E 06  Length = 160000 BitCount = 84 ID = 356
   0.219704 1  4F1             Rx   d 4 20 00 0A D0  Length = 158000 BitCount = 83 ID = 1265
   0.219939 1  111             Rx   d 8 00 40 61 FF 7B 08 0B 6C  Length = 226000 BitCount = 117 ID = 273
   0.220181 1  112             Rx   d 8 FF F0 00 00 FF 08 0B 00  Length = 234000 BitCount = 121 ID = 274
   0.220425 1  113             Rx   d 8 00 20 00 80 00 00 01 9C  Length = 236000 BitCount = 122 ID = 275
   0.220662 1  251             Rx   d 8 03 04 CB 5C 00 02 08 80  Length = 228000 BitCount = 118 ID = 593
   0.220904 1  18F             Rx   d 8 FA 50 00 00 00 48 00 20  Length = 234000 BitCount = 121 ID = 399
   0.221154 1  1BF             Rx   d 8 00 00 00 00 00 00 00 00  Length = 242000 BitCount = 125 ID = 447
   0.221366 1  200             Rx   d 6 72 00 9F 00 00 00  Length = 204000 BitCount = 106 ID = 512
   0.221601 1  260             Rx   d 8 0C 17 17 30 00 C7 68 2E  Length = 226000 BitCount = 117 ID = 608
   0.221789 1  2B0             Rx   d 5 00 01 00 07 DB  Length = 180000 BitCount = 94 ID = 688
   0.222017 1  316             Rx   d 8 65 17 58 0B 17 16 00 6D  Length = 220000 BitCount = 114 ID = 790
   0.222254 1  329             Rx   d 8 40 B5 7C 0C 11 20 00 14  Length = 228000 BitCount = 118 ID = 809
   0.222462 1  374             Rx   d 6 58 0B 00 00 00 00  Length = 200000 BitCount = 104 ID = 884
   0.222700 1  383             Rx   d 8 2E 2B E5 69 70 00 00 F9  Length = 230000 BitCount = 119 ID = 899
   0.222942 1  340             Rx   d 8 00 00 00 24 84 00 B8 10  Length = 234000 BitCount = 121 ID = 832
   0.223058 1  500             Rx   d 1 00  Length = 108000 BitCount = 58 ID = 1280
   0.223210 1  586             Rx   d 3 00 00 00  Length = 144000 BitCount = 76 ID = 1414
   0.224343 1  153             Rx   d 8 00 00 10 FF 00 FF 40 4E  Length = 232000 BitCount = 120 ID = 339
   0.224579 1  220             Rx   d 8 15 E4 80 30 00 F9 0F 68  Length = 228000 BitCount = 118 ID = 544
   0.224821 1  394             Rx   d 8 00 80 00 00 FF 83 1E 82  Length = 234000 BitCount = 121 ID = 916
   0.225061 1  420             Rx   d 8 10 00 20 C8 FE 4F 6A 00  Length = 232000 BitCount = 120 ID = 1056
   0.225327 1  421             Rx   d 8 00 00 00 FF E3 7F 20 36  Length = 232000 BitCount = 120 ID = 1057
   0.227469 1  58B             Rx   d 8 11 00 04 00 00 00 00 20  Length = 240000 BitCount = 124 ID = 1419
   0.229419 1  386             Rx   d 8 00 C0 00 80 00 40 00 80  Length = 234000 BitCount = 121 ID = 902
   0.229587 1  164             Rx   d 4 00 08 10 18  Length = 160000 BitCount = 84 ID = 356
   0.229838 1  381             Rx   d 8 80 18 40 00 00 E6 C3 05  Length = 230000 BitCount = 119 ID = 897
   0.230070 1  111             Rx   d 8 00 40 61 FF 7B 12 0B 70  Length = 224000 BitCount = 116 ID = 273
   0.230310 1  112             Rx   d 8 FF 00 00 00 FF 12 0B 00  Length = 232000 BitCount = 120 ID = 274
   0.230553 1  113             Rx   d 8 00 20 00 80 00 00 01 50  Length = 234000 BitCount = 121 ID = 275
   0.230795 1  18F             Rx   d 8 FA 50 00 00 00 48 00 20  Length = 234000 BitCount = 121 ID = 399
   0.231045 1  1BF             Rx   d 8 00 00 00 00 00 00 00 00  Length = 242000 BitCount = 125 ID = 447
   0.231257 1  200             Rx   d 6 00 00 9F 00 00 00  Length = 204000 BitCount = 106 ID = 512
   0.231495 1  251             Rx   d 8 04 04 CC 5F 00 03 08 80  Length = 230000 BitCount = 119 ID = 593
   0.231734 1  260             Rx   d 8 0C 17 17 30 00 C7 68 3D  Length = 230000 BitCount = 119 ID = 608
   0.231920 1  2B0             Rx   d 5 00 01 00 07 AC  Length = 178000 BitCount = 93 ID = 688
   0.232148 1  316             Rx   d 8 65 17 58 0B 17 16 00 6D  Length = 220000 BitCount = 114 ID = 790
   0.232385 1  329             Rx   d 8 40 B5 7C 0C 11 20 00 14  Length = 228000 BitCount = 118 ID = 809
   0.232593 1  374             Rx   d 6 58 0B 00 00 00 00  Length = 200000 BitCount = 104 ID = 884
   0.232837 1  340             Rx   d 8 00 00 00 24 94 00 C8 10  Length = 236000 BitCount = 122 ID = 832
   0.234339 1  153             Rx   d 8 00 00 10 FF 00 FF 50 5E  Length = 232000 BitCount = 120 ID = 339
   0.234579 1  220             Rx   d 8 13 E4 80 30 00 06 10 74  Length = 232000 BitCount = 120 ID = 544
   0.234787 1  47F             Rx   d 6 00 FC FF FA 00 00  Length = 200000 BitCount = 104 ID = 1151
   0.235035 1  587             Rx   d 8 00 00 00 00 00 00 00 07  Length = 240000 BitCount = 124 ID = 1415
   0.239301 1  387             Rx   d 6 58 3D 0B 08 00 A8  Length = 190000 BitCount = 99 ID = 903
   0.239468 1  164             Rx   d 4 00 08 12 1A  Length = 158000 BitCount = 83 ID = 356
   0.239688 1  4F1             Rx   d 4 20 00 0A E0  Length = 158000 BitCount = 83 ID = 1265
   0.239920 1  111             Rx   d 8 00 40 61 FF 7B 0F 0B 74  Length = 224000 BitCount = 116 ID = 273
   0.240156 1  112             Rx   d 8 FF 50 00 00 FF 0F 0B 00  Length = 228000 BitCount = 118 ID = 274
   0.240399 1  113             Rx   d 8 00 20 00 80 00 00 01 14  Length = 234000 BitCount = 121 ID = 275
   0.240633 1  251             Rx   d 8 02 04 CD 5D 00 02 08 80  Length = 226000 BitCount = 117 ID = 593
   0.240876 1  18F             Rx   d 8 FA 50 00 00 00 48 00 20  Length = 234000 BitCount = 121 ID = 399
   0.241126 1  1BF             Rx   d 8 00 00 00 00 00 00 00 00  Length = 242000 BitCount = 125 ID = 447
   0.241338 1  200             Rx   d 6 00 00 9F 00 00 00  Length = 204000 BitCount = 106 ID = 512
   0.241572 1  260             Rx   d 8 0C 17 17 30 00 C7 67 01  Length = 226000 BitCount = 117 ID = 608
   0.241756 1  2B0             Rx   d 5 02 01 00 07 9D  Length = 176000 BitCount = 92 ID = 688
   0.241985 1  316             Rx   d 8 65 17 58 0B 17 16 00 6D  Length = 220000 BitCount = 114 ID = 790
   0.242221 1  329             Rx   d 8 40 B5 7C 0C 11 20 00 14  Length = 228000 BitCount = 118 ID = 809
   0.242429 1  374             Rx   d 6 58 0B 00 00 00 00  Length = 200000 BitCount = 104 ID = 884
   0.242665 1  383             Rx   d 8 2E 2B F5 69 70 00 00 E9  Length = 228000 BitCount = 118 ID = 899
   0.242905 1  340             Rx   d 8 00 00 00 24 A4 00 D8 10  Length = 232000 BitCount = 120 ID = 832
   0.243145 1  410             Rx   d 8 90 1B 49 10 21 02 00 00  Length = 232000 BitCount = 120 ID = 1040
   0.243342 1  436             Rx   d 4 00 00 00 00  Length = 164000 BitCount = 86 ID = 1078
   0.243614 1  50E             Rx   d 8 00 00 00 60 00 00 00 00  Length = 240000 BitCount = 124 ID = 1294
   0.243890 1  520             Rx   d 8 00 00 00 00 00 00 00 00  Length = 244000 BitCount = 126 ID = 1312
   0.244160 1  541             Rx   d 8 03 01 81 00 00 00 00 00  Length = 238000 BitCount = 123 ID = 1345
   0.244401 1  153             Rx   d 8 00 00 10 FF 00 FF 60 6E  Length = 232000 BitCount = 120 ID = 339
   0.244643 1  220             Rx   d 8 13 04 81 30 00 00 10 81  Length = 234000 BitCount = 121 ID = 544
   0.244887 1  394             Rx   d 8 00 A0 00 00 FF 83 1C 82  Length = 236000 BitCount = 122 ID = 916
   0.245129 1  420             Rx   d 8 20 00 20 C8 FE 4F 6A 00  Length = 234000 BitCount = 121 ID = 1056
   0.245353 1  490             Rx   d 7 00 00 08 21 00 00 3C  Length = 216000 BitCount = 112 ID = 1168
   0.245593 1  421             Rx   d 8 00 00 00 FF E3 7F 20 27  Length = 232000 BitCount = 120 ID = 1057
   0.245835 1  553             Rx   d 8 00 00 19 04 01 00 C0 00  Length = 234000 BitCount = 121 ID = 1363
   0.246106 1  559             Rx   d 8 00 00 00 00 20 00 00 40  Length = 238000 BitCount = 123 ID = 1369
   0.249418 1  386             Rx   d 8 00 00 00 C0 00 40 00 80  Length = 236000 BitCount = 122 ID = 902
   0.249586 1  164             Rx   d 4 00 08 14 1C  Length = 160000 BitCount = 84 ID = 356
   0.249886 1  381             Rx   d 8 80 08 40 00 00 E7 B4 05  Length = 230000 BitCount = 119 ID = 897
   0.250119 1  111             Rx   d 8 00 40 61 FF 7B 10 0B 18  Length = 224000 BitCount = 116 ID = 273
   0.250357 1  112             Rx   d 8 FF A0 00 00 FF 10 0B 00  Length = 230000 BitCount = 119 ID = 274
   0.250601 1  113             Rx   d 8 00 20 00 80 00 00 01 D8  Length = 236000 BitCount = 122 ID = 275
   0.250843 1  18F             Rx   d 8 FA 50 00 00 00 48 00 20  Length = 234000 BitCount = 121 ID = 399
   0.251093 1  1BF             Rx   d 8 00 00 00 00 00 00 00 00  Length = 242000 BitCount = 125 ID = 447
   0.251306 1  200             Rx   d 6 00 00 9F 00 00 00  Length = 204000 BitCount = 106 ID = 512
   0.251540 1  251             Rx   d 8 02 04 CE 5D 00 01 08 80  Length = 226000 BitCount = 117 ID = 593
   0.251776 1  260             Rx   d 8 0C 17 17 30 00 C7 66 11  Length = 228000 BitCount = 118 ID = 608
   0.251961 1  2B0             Rx   d 5 02 01 00 07 AE  Length = 176000 BitCount = 92 ID = 688
   0.252189 1  316             Rx   d 8 65 17 68 0B 17 16 00 6D  Length = 220000 BitCount = 114 ID = 790
   0.252423 1  329             Rx   d 8 86 B5 7C 0C 11 20 00 14  Length = 226000 BitCount = 117 ID = 809
   0.252631 1  374             Rx   d 6 58 0B 00 00 00 00  Length = 200000 BitCount = 104 ID = 884
   0.252872 1  340             Rx   d 8 00 00 00 24 B4 00 E8 10  Length = 232000 BitCount = 120 ID = 832
   0.253104 1  555             Rx   d 8 9E 00 00 00 18 86 90 AF  Length = 224000 BitCount = 116 ID = 1365
   0.254344 1  153             Rx   d 8 00 00 10 FF 00 FF 70 7E  Length = 236000 BitCount = 122 ID = 339
   0.254584 1  220             Rx   d 8 14 04 81 3C 00 F9 0F 94  Length = 232000 BitCount = 120 ID = 544
   0.254792 1  47F             Rx   d 6 00 FD FF FA 00 00  Length = 200000 BitCount = 104 ID = 1151
   0.259302 1  387             Rx   d 6 58 3D 0B 08 00 A8  Length = 190000 BitCount = 99 ID = 903
   0.259468 1  164             Rx   d 4 00 08 16 1E  Length = 158000 BitCount = 83 ID = 356
   0.259684 1  4F1             Rx   d 4 00 00 0A F0  Length = 158000 BitCount = 83 ID = 1265
   0.259917 1  111             Rx   d 8 00 40 61 FF 7B 10 0B DC  Length = 224000 BitCount = 116 ID = 273
   0.260159 1  112             Rx   d 8 FF F0 00 00 FF 10 0B 00  Length = 234000 BitCount = 121 ID = 274
   0.260403 1  113             Rx   d 8 00 20 00 80 00 00 01 9C  Length = 236000 BitCount = 122 ID = 275
   0.260639 1  251             Rx   d 8 03 04 CF 60 00 02 08 80  Length = 228000 BitCount = 118 ID = 593
   0.260882 1  18F             Rx   d 8 FA 50 00 00 00 48 00 20  Length = 234000 BitCount = 121 ID = 399
   0.261132 1  1BF             Rx   d 8 00 00 00 00 00 00 00 00  Length = 242000 BitCount = 125 ID = 447
   0.261344 1  200             Rx   d 6 70 00 9F 00 00 00  Length = 204000 BitCount = 106 ID = 512
   0.261580 1  260             Rx   d 8 0C 17 17 30 00 C7 65 21  Length = 228000 BitCount = 118 ID = 608
   0.261773 1  2B0             Rx   d 5 00 01 00 07 9F  Length = 184000 BitCount = 96 ID = 688
   0.262001 1  316             Rx   d 8 65 17 68 0B 17 16 00 6D  Length = 220000 BitCount = 114 ID = 790
   0.262235 1  329             Rx   d 8 86 B5 7C 0C 11 20 00 14  Length = 226000 BitCount = 117 ID = 809
   0.262444 1  374             Rx   d 6 68 0B 00 00 00 00  Length = 200000 BitCount = 104 ID = 884
   0.262680 1  383             Rx   d 8 2E 2B 05 69 70 00 00 19  Length = 228000 BitCount = 118 ID = 899
   0.262926 1  340             Rx   d 8 00 00 00 24 C4 00 F8 10  Length = 238000 BitCount = 123 ID = 832
   0.263160 1  492             Rx   d 8 00 00 70 2E A8 80 6E 38  Length = 226000 BitCount = 117 ID = 1170
   0.263334 1  502             Rx   d 4 00 00 04 20  Length = 166000 BitCount = 87 ID = 1282
   0.263582 1  52A             Rx   d 8 00 00 00 00 04 00 00 00  Length = 240000 BitCount = 124 ID = 1322
   0.263796 1  53E             Rx   d 6 00 00 00 00 20 00  Length = 206000 BitCount = 107 ID = 1342
   0.264327 1  420             Rx   d 8 30 00 20 C8 FE 4F 6A 00  Length = 230000 BitCount = 119 ID = 1056
   0.264565 1  153             Rx   d 8 00 00 10 FF 00 FF 80 8E  Length = 230000 BitCount = 119 ID = 339
   0.264801 1  220             Rx   d 8 15 04 81 30 00 01 10 A2  Length = 228000 BitCount = 118 ID = 544
   0.265045 1  394             Rx   d 8 00 C0 00 00 FF 83 1A 82  Length = 236000 BitCount = 122 ID = 916
   0.265287 1  421             Rx   d 8 00 00 00 FF E3 7F 20 18  Length = 234000 BitCount = 121 ID = 1057
   0.269417 1  386             Rx   d 8 00 40 00 C0 00 40 00 80  Length = 236000 BitCount = 122 ID = 902
   0.269592 1  164             Rx   d 4 00 08 18 10  Length = 166000 BitCount = 87 ID = 356
   0.269848 1  381             Rx   d 8 80 18 40 00 00 E8 C5 05  Length = 232000 BitCount = 120 ID = 897
   0.270080 1  111             Rx   d 8 00 40 61 FF 7B 12 0B 70  Length = 224000 BitCount = 116 ID = 273
   0.270320 1  112             Rx   d 8 FF 00 00 00 FF 12 0B 00  Length = 232000 BitCount = 120 ID = 274
   0.270563 1  113             Rx   d 8 00 20 00 80 00 00 01 50  Length = 234000 BitCount = 121 ID = 275
   0.270805 1  18F             Rx   d 8 FA 50 00 00 00 48 00 20  Length = 234000 BitCount = 121 ID = 399
   0.271055 1  1BF             Rx   d 8 00 00 00 00 00 00 00 00  Length = 242000 BitCount = 125 ID = 447
   0.271267 1  200             Rx   d 6 00 00 9F 00 00 00  Length = 204000 BitCount = 106 ID = 512
   0.271503 1  251             Rx   d 8 03 04 D0 62 00 03 08 80  Length = 228000 BitCount = 118 ID = 593
   0.271740 1  260             Rx   d 8 0C 17 17 30 00 C7 65 30  Length = 228000 BitCount = 118 ID = 608
   0.271930 1  2B0             Rx   d 5 00 01 00 07 60  Length = 182000 BitCount = 95 ID = 688
   0.272159 1  316             Rx   d 8 65 17 68 0B 17 16 00 6D  Length = 220000 BitCount = 114 ID = 790
   0.272393 1  329             Rx   d 8 86 B5 7C 0C 11 20 00 14  Length = 226000 BitCount = 117 ID = 809
   0.272601 1  374             Rx   d 6 68 0B 00 00 00 00  Length = 200000 BitCount = 104 ID = 884
   0.272843 1  340             Rx   d 8 00 00 00 24 D4 00 08 10  Length = 234000 BitCount = 121 ID = 832
   0.274333 1  153             Rx   d 8 00 00 10 FF 00 FF 90 9E  Length = 228000 BitCount = 118 ID = 339
   0.274573 1  220             Rx   d 8 14 E4 80 30 00 FC 0F BA  Length = 232000 BitCount = 120 ID = 544
   0.274780 1  47F             Rx   d 6 00 FE FF FA 00 00  Length = 198000 BitCount = 103 ID = 1151
   0.274914 1  591             Rx   d 2 02 00  Length = 126000 BitCount = 67 ID = 1425
   0.276946 1  58B             Rx   d 8 11 00 04 00 00 00 00 20  Length = 240000 BitCount = 124 ID = 1419
   0.279300 1  387             Rx   d 6 58 3D 0B 08 00 A8  Length = 190000 BitCount = 99 ID = 903
   0.279466 1  164             Rx   d 4 00 08 1A 12  Length = 158000 BitCount = 83 ID = 356
   0.279738 1  2B0             Rx   d 5 01 01 00 07 61  Length = 178000 BitCount = 93 ID = 688
   0.279969 1  111             Rx   d 8 00 40 61 FF 7B 11 0B 44  Length = 222000 BitCount = 115 ID = 273
   0.280205 1  112             Rx   d 8 FF 50 00 00 FF 11 0B 00  Length = 228000 BitCount = 118 ID = 274
   0.280447 1  113             Rx   d 8 00 20 00 80 00 00 01 14  Length = 234000 BitCount = 121 ID = 275
   0.280689 1  18F             Rx   d 8 FA 50 00 00 00 48 00 20  Length = 234000 BitCount = 121 ID = 399
   0.280940 1  1BF             Rx   d 8 00 00 00 00 00 00 00 00  Length = 242000 BitCount = 125 ID = 447
   0.281152 1  200             Rx   d 6 00 00 9F 00 00 00  Length = 204000 BitCount = 106 ID = 512
   0.281388 1  251             Rx   d 8 02 04 D1 61 00 02 08 80  Length = 228000 BitCount = 118 ID = 593
   0.281623 1  260             Rx   d 8 0C 17 17 30 00 C7 65 03  Length = 226000 BitCount = 117 ID = 608
   0.281851 1  316             Rx   d 8 65 17 68 0B 17 16 00 6D  Length = 220000 BitCount = 114 ID = 790
   0.282085 1  329             Rx   d 8 86 B5 7C 0C 11 20 00 14  Length = 226000 BitCount = 117 ID = 809
   0.282293 1  374             Rx   d 6 68 0B 00 00 00 00  Length = 200000 BitCount = 104 ID = 884
   0.282529 1  383             Rx   d 8 2E 2B 15 69 70 00 00 09  Length = 228000 BitCount = 118 ID = 899
   0.282771 1  340             Rx   d 8 00 00 00 24 E4 00 18 10  Length = 234000 BitCount = 121 ID = 832
   0.282939 1  4F1             Rx   d 4 00 00 0A 00  Length = 160000 BitCount = 84 ID = 1265
   0.283185 1  50C             Rx   d 8 10 19 00 E9 18 10 02 D8  Length = 230000 BitCount = 119 ID = 1292
   0.283438 1  533             Rx   d 8 FF 1F 1F FF FF FF FF 00  Length = 236000 BitCount = 122 ID = 1331
   0.283694 1  534             Rx   d 8 FF FF FF FF FF FF 0F 00  Length = 240000 BitCount = 124 ID = 1332
   0.283970 1  535             Rx   d 8 07 FF FF FF FF FF FF FF  Length = 238000 BitCount = 123 ID = 1333
   0.284337 1  153             Rx   d 8 00 00 10 FF 00 FF A0 AE  Length = 230000 BitCount = 119 ID = 339
   0.284577 1  220             Rx   d 8 13 04 81 3C 00 00 10 CD  Length = 232000 BitCount = 120 ID = 544
   0.284821 1  394             Rx   d 8 00 E0 00 00 FF 83 18 82  Length = 236000 BitCount = 122 ID = 916
   0.285059 1  420             Rx   d 8 40 00 20 C8 FE 4F 6A 00  Length = 230000 BitCount = 119 ID = 1056
   0.285325 1  421             Rx   d 8 00 00 00 FF E3 7F 20 09  Length = 232000 BitCount = 120 ID = 1057
   0.289427 1  386             Rx   d 8 00 80 00 C0 00 40 00 80  Length = 236000 BitCount = 122 ID = 902
   0.289597 1  164             Rx   d 4 00 08 1C 14  Length = 162000 BitCount = 85 ID = 356
   0.289890 1  381             Rx   d 8 80 08 40 00 00 E9 B6 05  Length = 230000 BitCount = 119 ID = 897
   0.290122 1  111             Rx   d 8 00 40 61 FF 7B 0F 0B 38  Length = 224000 BitCount = 116 ID = 273
   0.290363 1  112             Rx   d 8 FF A0 00 00 FF 0F 0B 00  Length = 232000 BitCount = 120 ID = 274
   0.290607 1  113             Rx   d 8 00 20 00 80 00 00 01 D8  Length = 236000 BitCount = 122 ID = 275
   0.290849 1  18F             Rx   d 8 FA 50 00 00 00 48 00 20  Length = 234000 BitCount = 121 ID = 399
   0.291099 1  1BF             Rx   d 8 00 00 00 00 00 00 00 00  Length = 242000 BitCount = 125 ID = 447
   0.291311 1  200             Rx   d 6 00 00 9F 00 00 00  Length = 204000 BitCount = 106 ID = 512
   0.291550 1  251             Rx   d 8 01 04 D2 4F 00 01 F8 7F  Length = 230000 BitCount = 119 ID = 593
   0.291788 1  260             Rx   d 8 0C 17 17 30 00 C7 64 13  Length = 230000 BitCount = 119 ID = 608
   0.291974 1  2B0             Rx   d 5 01 01 00 07 52  Length = 178000 BitCount = 93 ID = 688
   0.292205 1  316             Rx   d 8 65 17 80 0B 17 16 00 6D  Length = 222000 BitCount = 115 ID = 790
   0.292439 1  329             Rx   d 8 86 B5 7C 0C 11 20 00 14  Length = 226000 BitCount = 117 ID = 809
   0.292647 1  374             Rx   d 6 68 0B 00 00 00 00  Length = 200000 BitCount = 104 ID = 884
   0.292887 1  340             Rx   d 8 00 00 00 24 F4 00 28 10  Length = 232000 BitCount = 120 ID = 832
   0.293059 1  436             Rx   d 4 00 00 00 00  Length = 164000 BitCount = 86 ID = 1078
   0.294336 1  153             Rx   d 8 00 00 10 FF 00 FF B0 BE  Length = 230000 BitCount = 119 ID = 339
   0.294582 1  220             Rx   d 8 13 04 81 30 00 FE 0F DC  Length = 238000 BitCount = 123 ID = 544
   0.294790 1  47F             Rx   d 6 00 FF FF FA 00 00  Length = 200000 BitCount = 104 ID = 1151
   0.295014 1  490             Rx   d 7 00 00 08 21 00 00 3C  Length = 216000 BitCount = 112 ID = 1168
   0.295186 1  507             Rx   d 4 00 00 00 01  Length = 164000 BitCount = 86 ID = 1287
   0.299298 1  387             Rx   d 6 58 3D 0B 08 00 A8  Length = 190000 BitCount = 99 ID = 903
   0.299464 1  164             Rx   d 4 00 08 1E 16  Length = 158000 BitCount = 83 ID = 356
   0.299694 1  4F1             Rx   d 4 20 00 0A 10  Length = 158000 BitCount = 83 ID = 1265
   0.299927 1  111             Rx   d 8 00 40 61 FF 7B 11 0B CC  Length = 224000 BitCount = 116 ID = 273
   0.300167 1  112             Rx   d 8 FF F0 00 00 FF 11 0B 00  Length = 232000 BitCount = 120 ID = 274
   0.300411 1  113             Rx   d 8 00 20 00 80 00 00 01 9C  Length = 236000 BitCount = 122 ID = 275
   0.300652 1  251             Rx   d 8 02 04 D3 63 00 02 08 80  Length = 232000 BitCount = 120 ID = 593
   0.300840 1  2B0             Rx   d 5 00 01 00 07 53  Length = 180000 BitCount = 94 ID = 688
   0.301050 1  374             Rx   d 6 80 0B 00 00 00 00  Length = 202000 BitCount = 105 ID = 884
   0.301292 1  18F             Rx   d 8 FA 50 00 00 00 48 00 20  Length = 234000 BitCount = 121 ID = 399
   0.301543 1  1BF             Rx   d 8 00 00 00 00 00 00 00 00  Length = 242000 BitCount = 125 ID = 447
   0.301755 1  200             Rx   d 6 70 00 9F 00 00 00  Length = 204000 BitCount = 106 ID = 512
   0.301987 1  260             Rx   d 8 0C 16 17 30 00 C7 62 25  Length = 224000 BitCount = 116 ID = 608
   0.302217 1  316             Rx   d 8 65 16 80 0B 16 16 00 6D  Length = 222000 BitCount = 115 ID = 790
   0.302451 1  329             Rx   d 8 86 B5 7C 0C 11 20 00 14  Length = 226000 BitCount = 117 ID = 809
   0.302685 1  383             Rx   d 8 2E 2B 25 69 70 00 00 39  Length = 226000 BitCount = 117 ID = 899
   0.302929 1  340             Rx   d 8 00 00 00 24 04 00 38 10  Length = 236000 BitCount = 122 ID = 832
   0.304191 1  420             Rx   d 8 50 00 20 C8 FE 4F 6A 00  Length = 226000 BitCount = 117 ID = 1056
   0.304432 1  153             Rx   d 8 00 00 10 FF 00 FF C0 CE  Length = 232000 BitCount = 120 ID = 339
   0.304672 1  220             Rx   d 8 15 E4 80 30 00 FE 0F EF  Length = 232000 BitCount = 120 ID = 544
   0.304918 1  394             Rx   d 8 00 00 00 00 FF 83 16 82  Length = 238000 BitCount = 123 ID = 916
   0.305162 1  421             Rx   d 8 00 00 00 FF E3 7F 20 FA  Length = 236000 BitCount = 122 ID = 1057
   0.309414 1  386             Rx   d 8 00 C0 00 C0 00 40 00 80  Length = 234000 BitCount = 121 ID = 902
   0.309584 1  164             Rx   d 4 00 08 00 08  Length = 162000 BitCount = 85 ID = 356
   0.309841 1  381             Rx   d 8 80 10 40 00 00 EA BF 05  Length = 236000 BitCount = 122 ID = 897
   0.310073 1  111             Rx   d 8 00 40 61 FF 7B 10 0B 90  Length = 224000 BitCount = 116 ID = 273
   0.310313 1  112             Rx   d 8 FF 00 00 00 FF 10 0B 00  Length = 232000 BitCount = 120 ID = 274
   0.310556 1  113             Rx   d 8 00 20 00 80 00 00 01 50  Length = 234000 BitCount = 121 ID = 275
   0.310798 1  18F             Rx   d 8 FA 50 00 00 00 48 00 20  Length = 234000 BitCount = 121 ID = 399
   0.311048 1  1BF             Rx   d 8 00 00 00 00 00 00 00 00  Length = 242000 BitCount = 125 ID = 447
   0.311260 1  200             Rx   d 6 00 00 9F 00 00 00  Length = 204000 BitCount = 106 ID = 512
   0.311496 1  251             Rx   d 8 03 04 D4 66 00 03 08 80  Length = 228000 BitCount = 118 ID = 593
   0.311729 1  260             Rx   d 8 0C 16 17 30 00 C7 62 34  Length = 224000 BitCount = 116 ID = 608
   0.311915 1  2B0             Rx   d 5 02 01 00 07 04  Length = 178000 BitCount = 93 ID = 688
   0.312146 1  316             Rx   d 8 65 16 80 0B 16 16 00 6D  Length = 222000 BitCount = 115 ID = 790
   0.312380 1  329             Rx   d 8 86 B5 7C 0C 11 20 00 14  Length = 226000 BitCount = 117 ID = 809
   0.312590 1  374             Rx   d 6 80 0B 00 00 00 00  Length = 202000 BitCount = 105 ID = 884
   0.312836 1  340             Rx   d 8 00 00 00 24 14 00 48 10  Length = 238000 BitCount = 123 ID = 832
   0.313075 1  492             Rx   d 8 00 00 70 2E A8 80 6E FC  Length = 230000 BitCount = 119 ID = 1170
   0.313311 1  4E5             Rx   d 8 80 6A 00 04 48 C3 00 00  Length = 228000 BitCount = 118 ID = 1253
   0.313539 1  4E6             Rx   d 8 48 C3 00 00 85 85 8C B9  Length = 220000 BitCount = 114 ID = 1254
   0.313783 1  4E7             Rx   d 8 1D 7C 00 08 00 82 00 00  Length = 236000 BitCount = 122 ID = 1255
   0.314023 1  545             Rx   d 8 D0 74 00 8C 00 00 00 C0  Length = 232000 BitCount = 120 ID = 1349
   0.314258 1  547             Rx   d 8 00 00 91 3F 4C 01 2D 00  Length = 226000 BitCount = 117 ID = 1351
   0.314496 1  153             Rx   d 8 00 00 10 FF 00 FF D0 DE  Length = 230000 BitCount = 119 ID = 339
   0.314734 1  220             Rx   d 8 15 04 81 30 00 00 10 F3  Length = 230000 BitCount = 119 ID = 544
   0.314942 1  47F             Rx   d 6 00 00 FF FA 00 00  Length = 200000 BitCount = 104 ID = 1151
   0.315174 1  549             Rx   d 8 BC 82 61 76 60 26 61 5F  Length = 224000 BitCount = 116 ID = 1353
   0.315414 1  556             Rx   d 8 1D 7F 80 0B 00 1F 02 00  Length = 232000 BitCount = 120 ID = 1366
   0.315652 1  557             Rx   d 8 7F 83 00 00 2F 64 04 00  Length = 230000 BitCount = 119 ID = 1367
   0.315880 1  5CE             Rx   d 8 53 54 77 2E 01 00 59 05  Length = 220000 BitCount = 114 ID = 1486
   0.316117 1  5CF             Rx   d 8 40 06 00 00 34 93 7A 00  Length = 228000 BitCount = 118 ID = 1487
   0.319298 1  387             Rx   d 6 58 3D 0B 08 00 A8  Length = 190000 BitCount = 99 ID = 903
   0.319467 1  164             Rx   d 4 00 08 02 0A  Length = 160000 BitCount = 84 ID = 356
   0.319709 1  4F1             Rx   d 4 20 00 0A 20  Length = 158000 BitCount = 83 ID = 1265
   0.319939 1  111             Rx   d 8 00 40 61 FF 7B 13 0B 24  Length = 222000 BitCount = 115 ID = 273
   0.320180 1  112             Rx   d 8 FF 50 00 00 FF 13 0B 00  Length = 232000 BitCount = 120 ID = 274
   0.320422 1  113             Rx   d 8 00 20 00 80 00 00 01 14  Length = 234000 BitCount = 121 ID = 275
   0.320658 1  251             Rx   d 8 03 04 D5 66 00 02 08 80  Length = 228000 BitCount = 118 ID = 593
   0.320901 1  18F             Rx   d 8 FA 50 00 00 00 48 00 20  Length = 234000 BitCount = 121 ID = 399
   0.321151 1  1BF             Rx   d 8 00 00 00 00 00 00 00 00  Length = 242000 BitCount = 125 ID = 447
   0.321363 1  200             Rx   d 6 00 00 9F 00 00 00  Length = 204000 BitCount = 106 ID = 512
   0.321599 1  260             Rx   d 8 0C 17 17 30 00 C7 63 05  Length = 228000 BitCount = 118 ID = 608
   0.321783 1  2B0             Rx   d 5 01 01 00 07 25  Length = 176000 BitCount = 92 ID = 688
   0.322014 1  316             Rx   d 8 65 17 80 0B 17 16 00 6D  Length = 222000 BitCount = 115 ID = 790
   0.322248 1  329             Rx   d 8 86 B5 7C 0C 11 20 00 14  Length = 226000 BitCount = 117 ID = 809
   0.322458 1  374             Rx   d 6 80 0B 00 00 00 00  Length = 202000 BitCount = 105 ID = 884
   0.322692 1  383             Rx   d 8 2E 2B 35 69 70 00 00 29  Length = 226000 BitCount = 117 ID = 899
   0.322932 1  340             Rx   d 8 00 00 00 24 24 00 58 10  Length = 232000 BitCount = 120 ID = 832
   0.323048 1  500             Rx   d 1 00  Length = 108000 BitCount = 58 ID = 1280
   0.323201 1  586             Rx   d 3 00 00 00  Length = 144000 BitCount = 76 ID = 1414
   0.324339 1  153             Rx   d 8 00 00 10 FF 00 FF E0 EE  Length = 236000 BitCount = 122 ID = 339
   0.324579 1  220             Rx   d 8 13 24 81 30 00 01 10 00  Length = 232000 BitCount = 120 ID = 544
   0.324821 1  394             Rx   d 8 00 20 00 00 FF 83 14 82  Length = 234000 BitCount = 121 ID = 916
   0.325057 1  420             Rx   d 8 60 00 20 C8 FE 4F 6A 00  Length = 228000 BitCount = 118 ID = 1056
   0.325323 1  421             Rx   d 8 00 00 00 FF E3 7F 20 EB  Length = 232000 BitCount = 120 ID = 1057
   0.327571 1  58B             Rx   d 8 11 00 04 00 00 00 00 20  Length = 240000 BitCount = 124 ID = 1419
   0.329415 1  386             Rx   d 8 00 00 00 00 00 40 00 80  Length = 238000 BitCount = 123 ID = 902
   0.329583 1  164             Rx   d 4 00 08 04 0C  Length = 160000 BitCount = 84 ID = 356
   0.329846 1  381             Rx   d 8 80 08 40 00 00 EB B8 05  Length = 230000 BitCount = 119 ID = 897
   0.330078 1  111             Rx   d 8 00 40 61 FF 7B 17 0B A8  Length = 224000 BitCount = 116 ID = 273
   0.330317 1  112             Rx   d 8 FF A0 00 00 FF 17 0B 00  Length = 230000 BitCount = 119 ID = 274
   0.330561 1  113             Rx   d 8 00 20 00 80 00 00 01 D8  Length = 236000 BitCount = 122 ID = 275
   0.330799 1  251             Rx   d 8 02 04 D6 66 00 02 08 80  Length = 230000 BitCount = 119 ID = 593
   0.330987 1  2B0             Rx   d 5 00 01 00 07 06  Length = 180000 BitCount = 94 ID = 688
   0.331198 1  374             Rx   d 6 80 0B 00 00 00 00  Length = 202000 BitCount = 105 ID = 884
   0.331764 1  18F             Rx   d 8 FA 50 00 00 00 48 00 20  Length = 234000 BitCount = 121 ID = 399
   0.332014 1  1BF             Rx   d 8 00 00 00 00 00 00 00 00  Length = 242000 BitCount = 125 ID = 447
   0.332226 1  200             Rx   d 6 00 00 9F 00 00 00  Length = 204000 BitCount = 106 ID = 512
   0.332458 1  260             Rx   d 8 0C 16 17 30 00 C7 62 16  Length = 224000 BitCount = 116 ID = 608
   0.332686 1  316             Rx   d 8 65 16 58 0B 16 16 00 6D  Length = 220000 BitCount = 114 ID = 790
   0.332921 1  329             Rx   d 8 F2 B5 7C 0C 11 20 00 14  Length = 226000 BitCount = 117 ID = 809
   0.333161 1  340             Rx   d 8 00 00 00 24 34 00 68 10  Length = 232000 BitCount = 120 ID = 832
   0.334335 1  153             Rx   d 8 00 00 10 FF 00 FF 00 0E  Length = 232000 BitCount = 120 ID = 339
   0.334571 1  220             Rx   d 8 14 24 81 30 00 FB 0F 1A  Length = 228000 BitCount = 118 ID = 544
   0.334779 1  47F             Rx   d 6 00 01 FF FA 00 00  Length = 200000 BitCount = 104 ID = 1151
   0.339293 1  387             Rx   d 6 58 3D 0B 08 00 A8  Length = 190000 BitCount = 99 ID = 903
   0.339461 1  164             Rx   d 4 00 08 06 0E  Length = 160000 BitCount = 84 ID = 356
   0.339706 1  4F1             Rx   d 4 00 00 0A 30  Length = 164000 BitCount = 86 ID = 1265
   0.339938 1  111             Rx   d 8 00 40 61 FF 7B 26 0B 6C  Length = 224000 BitCount = 116 ID = 273
   0.340178 1  112             Rx   d 8 FF F0 00 00 FF 26 0B 00  Length = 232000 BitCount = 120 ID = 274
   0.340423 1  113             Rx   d 8 00 20 00 80 00 00 01 9C  Length = 236000 BitCount = 122 ID = 275
   0.340659 1  251             Rx   d 8 03 04 D7 68 00 02 08 80  Length = 228000 BitCount = 118 ID = 593
   0.340901 1  18F             Rx   d 8 FA 50 00 00 00 48 00 20  Length = 234000 BitCount = 121 ID = 399
   0.341152 1  1BF             Rx   d 8 00 00 00 00 00 00 00 00  Length = 242000 BitCount = 125 ID = 447
   0.341364 1  200             Rx   d 6 70 00 9F 00 00 00  Length = 204000 BitCount = 106 ID = 512
   0.341596 1  260             Rx   d 8 0C 17 17 30 00 C7 64 22  Length = 224000 BitCount = 116 ID = 608
   0.341782 1  2B0             Rx   d 5 01 01 00 07 07  Length = 178000 BitCount = 93 ID = 688
   0.342011 1  316             Rx   d 8 65 17 58 0B 17 16 00 6D  Length = 220000 BitCount = 114 ID = 790
   0.342245 1  329             Rx   d 8 F2 B5 7C 0C 11 20 00 14  Length = 226000 BitCount = 117 ID = 809
   0.342453 1  374             Rx   d 6 58 0B 00 00 00 00  Length = 200000 BitCount = 104 ID = 884
   0.342687 1  383             Rx   d 8 2E 2B 45 69 70 00 00 59  Length = 226000 BitCount = 117 ID = 899
   0.342929 1  340             Rx   d 8 00 00 00 24 44 00 78 10  Length = 234000 BitCount = 121 ID = 832
   0.343101 1  436             Rx   d 4 00 00 00 00  Length = 164000 BitCount = 86 ID = 1078
   0.343375 1  520             Rx   d 8 00 00 00 00 00 00 00 00  Length = 244000 BitCount = 126 ID = 1312
   0.343644 1  541             Rx   d 8 03 01 81 00 00 00 00 00  Length = 238000 BitCount = 123 ID = 1345
   0.344216 1  420             Rx   d 8 70 00 20 C8 FE 4F 6A 00  Length = 228000 BitCount = 118 ID = 1056
   0.344456 1  153             Rx   d 8 00 00 10 FF 00 FF 10 1E  Length = 232000 BitCount = 120 ID = 339
   0.344694 1  220             Rx   d 8 14 24 81 30 00 FE 0F 2F  Length = 230000 BitCount = 119 ID = 544
   0.344936 1  394             Rx   d 8 00 40 00 00 FF 83 12 82  Length = 234000 BitCount = 121 ID = 916
   0.345179 1  421             Rx   d 8 00 00 00 FF E3 7F 20 DC  Length = 234000 BitCount = 121 ID = 1057
   0.345403 1  490             Rx   d 7 00 00 08 21 00 00 3C  Length = 216000 BitCount = 112 ID = 1168
   0.349415 1  386             Rx   d 8 00 40 00 00 00 40 00 80  Length = 240000 BitCount = 124 ID = 902
   0.349587 1  164             Rx   d 4 00 08 08 00  Length = 164000 BitCount = 86 ID = 356
   0.349825 1  251             Rx   d 8 05 04 D8 7D 00 04 18 80  Length = 230000 BitCount = 119 ID = 593
   0.350060 1  111             Rx   d 8 00 40 61 FF 7B 1D 0B C0  Length = 226000 BitCount = 117 ID = 273
   0.350296 1  112             Rx   d 8 FF 00 00 00 FF 1D 0B 00  Length = 228000 BitCount = 118 ID = 274
   0.350538 1  113             Rx   d 8 00 20 00 80 00 00 01 50  Length = 234000 BitCount = 121 ID = 275
   0.350780 1  18F             Rx   d 8 FA 50 00 00 00 48 00 20  Length = 234000 BitCount = 121 ID = 399
   0.351030 1  1BF             Rx   d 8 00 00 00 00 00 00 00 00  Length = 242000 BitCount = 125 ID = 447
   0.351242 1  200             Rx   d 6 00 00 9F 00 00 00  Length = 204000 BitCount = 106 ID = 512
   0.351479 1  260             Rx   d 8 0C 17 17 30 00 C7 65 30  Length = 228000 BitCount = 118 ID = 608
   0.351667 1  2B0             Rx   d 5 00 01 00 07 E8  Length = 180000 BitCount = 94 ID = 688
   0.351895 1  316             Rx   d 8 65 17 58 0B 17 16 00 6D  Length = 220000 BitCount = 114 ID = 790
   0.352130 1  329             Rx   d 8 F2 B5 7C 0C 11 20 00 14  Length = 226000 BitCount = 117 ID = 809
   0.352338 1  374             Rx   d 6 58 0B 00 00 00 00  Length = 200000 BitCount = 104 ID = 884
   0.352576 1  381             Rx   d 8 80 18 40 00 00 EC C9 05  Length = 230000 BitCount = 119 ID = 897
   0.352818 1  340             Rx   d 8 00 00 00 24 54 00 88 10  Length = 234000 BitCount = 121 ID = 832
   0.353052 1  555             Rx   d 8 9E 00 00 00 18 86 91 AF  Length = 226000 BitCount = 117 ID = 1365
   0.354328 1  153             Rx   d 8 00 00 10 FF 00 FF 20 2E  Length = 230000 BitCount = 119 ID = 339
   0.354570 1  220             Rx   d 8 13 24 81 30 00 FE 0F 3C  Length = 234000 BitCount = 121 ID = 544
   0.354780 1  47F             Rx   d 6 00 02 FF FA 00 00  Length = 202000 BitCount = 105 ID = 1151
   0.359292 1  387             Rx   d 6 58 3D 0B 08 00 A8  Length = 190000 BitCount = 99 ID = 903
   0.359460 1  164             Rx   d 4 00 08 0A 02  Length = 160000 BitCount = 84 ID = 356
   0.359690 1  4F1             Rx   d 4 20 00 0A 40  Length = 158000 BitCount = 83 ID = 1265
   0.359925 1  111             Rx   d 8 00 40 61 FF 7B 03 0B 34  Length = 226000 BitCount = 117 ID = 273
   0.360165 1  112             Rx   d 8 FF 50 00 00 FF 03 0B 00  Length = 232000 BitCount = 120 ID = 274
   0.360407 1  113             Rx   d 8 00 20 00 80 00 00 01 14  Length = 234000 BitCount = 121 ID = 275
   0.360642 1  251             Rx   d 8 04 04 D9 6C 00 03 08 80  Length = 226000 BitCount = 117 ID = 593
   0.360884 1  18F             Rx   d 8 FA 50 00 00 00 48 00 20  Length = 234000 BitCount = 121 ID = 399
   0.361134 1  1BF             Rx   d 8 00 00 00 00 00 00 00 00  Length = 242000 BitCount = 125 ID = 447
   0.361347 1  200             Rx   d 6 00 00 9F 00 00 00  Length = 204000 BitCount = 106 ID = 512
   0.361581 1  260             Rx   d 8 0C 17 17 30 00 C7 65 03  Length = 226000 BitCount = 117 ID = 608
   0.361769 1  2B0             Rx   d 5 00 01 00 07 F9  Length = 180000 BitCount = 94 ID = 688
   0.361998 1  316             Rx   d 8 65 17 58 0B 17 16 00 6D  Length = 220000 BitCount = 114 ID = 790
   0.362232 1  329             Rx   d 8 F2 B5 7C 0C 11 20 00 14  Length = 226000 BitCount = 117 ID = 809
   0.362440 1  374             Rx   d 6 58 0B 00 00 00 00  Length = 200000 BitCount = 104 ID = 884
   0.362676 1  383             Rx   d 8 2E 2B 55 69 70 00 00 49  Length = 228000 BitCount = 118 ID = 899
   0.362918 1  340             Rx   d 8 00 00 00 24 64 00 98 10  Length = 234000 BitCount = 121 ID = 832
   0.363154 1  492             Rx   d 8 00 00 70 2E A8 80 6E B0  Length = 228000 BitCount = 118 ID = 1170
   0.363328 1  502             Rx   d 4 00 00 04 20  Length = 166000 BitCount = 87 ID = 1282
   0.363543 1  53E             Rx   d 6 00 00 00 00 20 00  Length = 206000 BitCount = 107 ID = 1342
   0.364331 1  153             Rx   d 8 00 00 10 FF 00 FF 30 3E  Length = 234000 BitCount = 121 ID = 339
   0.364571 1  220             Rx   d 8 13 04 81 30 00 05 10 44  Length = 232000 BitCount = 120 ID = 544
   0.364813 1  394             Rx   d 8 00 60 00 00 FF 83 10 82  Length = 234000 BitCount = 121 ID = 916
   0.365049 1  420             Rx   d 8 80 00 20 C8 FE 4F 6A 00  Length = 228000 BitCount = 118 ID = 1056
   0.365317 1  421             Rx   d 8 00 00 00 FF E3 7F 20 CD  Length = 234000 BitCount = 121 ID = 1057
   0.369407 1  386             Rx   d 8 00 80 00 00 00 40 00 80  Length = 236000 BitCount = 122 ID = 902
   0.369576 1  164             Rx   d 4 00 08 0C 04  Length = 160000 BitCount = 84 ID = 356
   0.369818 1  381             Rx   d 8 80 10 40 00 00 ED C2 05  Length = 234000 BitCount = 121 ID = 897
   0.370050 1  111             Rx   d 8 00 40 61 FF 7B 0D 0B 58  Length = 224000 BitCount = 116 ID = 273
   0.370289 1  112             Rx   d 8 FF A0 00 00 FF 0D 0B 00  Length = 230000 BitCount = 119 ID = 274
   0.370533 1  113             Rx   d 8 00 20 00 80 00 00 01 D8  Length = 236000 BitCount = 122 ID = 275
   0.370775 1  18F             Rx   d 8 FA 50 00 00 00 48 00 20  Length = 234000 BitCount = 121 ID = 399
   0.371025 1  1BF             Rx   d 8 00 00 00 00 00 00 00 00  Length = 242000 BitCount = 125 ID = 447
   0.371237 1  200             Rx   d 6 00 00 9F 00 00 00  Length = 204000 BitCount = 106 ID = 512
   0.371472 1  251             Rx   d 8 03 04 DA 6B 00 02 08 80  Length = 226000 BitCount = 117 ID = 593
   0.371706 1  260             Rx   d 8 0C 17 17 30 00 C7 65 12  Length = 226000 BitCount = 117 ID = 608
   0.371894 1  2B0             Rx   d 5 00 01 00 07 CA  Length = 180000 BitCount = 94 ID = 688
   0.372123 1  316             Rx   d 8 65 17 58 0B 17 16 00 6D  Length = 220000 BitCount = 114 ID = 790
   0.372357 1  329             Rx   d 8 F2 B5 7C 0C 11 20 00 14  Length = 226000 BitCount = 117 ID = 809
   0.372565 1  374             Rx   d 6 58 0B 00 00 00 00  Length = 200000 BitCount = 104 ID = 884
   0.372805 1  340             Rx   d 8 00 00 00 24 74 00 A8 10  Length = 232000 BitCount = 120 ID = 832
   0.374330 1  153             Rx   d 8 00 00 10 FF 00 FF 40 4E  Length = 232000 BitCount = 120 ID = 339
   0.374570 1  220             Rx   d 8 13 04 81 30 00 00 10 51  Length = 232000 BitCount = 120 ID = 544
   0.374782 1  47F             Rx   d 6 00 03 FF FA 00 00  Length = 204000 BitCount = 106 ID = 1151
   0.374916 1  591             Rx   d 2 02 00  Length = 126000 BitCount = 67 ID = 1425
   0.376862 1  593             Rx   d 6 00 00 FF FF FF FF  Length = 200000 BitCount = 104 ID = 1427
   0.377110 1  58B             Rx   d 8 11 00 04 00 00 00 00 20  Length = 240000 BitCount = 124 ID = 1419
   0.379292 1  387             Rx   d 6 58 3D 0B 08 00 A8  Length = 190000 BitCount = 99 ID = 903
   0.379461 1  164             Rx   d 4 00 08 0E 06  Length = 160000 BitCount = 84 ID = 356
   0.379721 1  2B0             Rx   d 5 01 01 00 07 CB  Length = 180000 BitCount = 94 ID = 688
   0.379955 1  111             Rx   d 8 00 40 61 FF 7B 0F 0B FC  Length = 226000 BitCount = 117 ID = 273
   0.380196 1  112             Rx   d 8 FF F0 00 00 FF 0F 0B 00  Length = 232000 BitCount = 120 ID = 274
   0.380440 1  113             Rx   d 8 00 20 00 80 00 00 01 9C  Length = 236000 BitCount = 122 ID = 275
   0.380682 1  18F             Rx   d 8 FA 50 00 00 00 48 00 20  Length = 234000 BitCount = 121 ID = 399
   0.380934 1  40              Rx   d 8 00 00 11 04 00 00 00 00  Length = 244000 BitCount = 126 ID = 64
   0.381184 1  1BF             Rx   d 8 00 00 00 00 00 00 00 00  Length = 242000 BitCount = 125 ID = 447
   0.381396 1  200             Rx   d 6 70 00 9F 00 00 00  Length = 204000 BitCount = 106 ID = 512
   0.381633 1  251             Rx   d 8 03 04 DB 6D 00 03 08 80  Length = 228000 BitCount = 118 ID = 593
   0.381865 1  260             Rx   d 8 0C 17 17 30 00 C7 64 22  Length = 224000 BitCount = 116 ID = 608
   0.382093 1  316             Rx   d 8 65 17 50 0B 17 16 00 6D  Length = 220000 BitCount = 114 ID = 790
   0.382328 1  329             Rx   d 8 F2 B5 7C 0C 11 20 00 14  Length = 226000 BitCount = 117 ID = 809
   0.382536 1  374             Rx   d 6 58 0B 00 00 00 00  Length = 200000 BitCount = 104 ID = 884
   0.382778 1  340             Rx   d 8 00 00 00 24 84 00 B8 10  Length = 234000 BitCount = 121 ID = 832
   0.383012 1  383             Rx   d 8 2E 2B 65 69 70 00 00 79  Length = 226000 BitCount = 117 ID = 899
   0.383182 1  4F1             Rx   d 4 00 00 0A 50  Length = 162000 BitCount = 85 ID = 1265
   0.383428 1  50C             Rx   d 8 10 19 00 E9 18 10 02 E8  Length = 230000 BitCount = 119 ID = 1292
   0.383680 1  533             Rx   d 8 FF 1F 1F FF FF FF FF 00  Length = 236000 BitCount = 122 ID = 1331
   0.383936 1  534             Rx   d 8 FF FF FF FF FF FF 0F 00  Length = 240000 BitCount = 124 ID = 1332
   0.384190 1  535             Rx   d 8 07 FF FF FF FF FF FF FF  Length = 238000 BitCount = 123 ID = 1333
   0.384431 1  153             Rx   d 8 00 00 10 FF 00 FF 50 5E  Length = 232000 BitCount = 120 ID = 339
   0.384671 1  220             Rx   d 8 14 04 81 30 00 F8 0F 69  Length = 232000 BitCount = 120 ID = 544
   0.384913 1  394             Rx   d 8 00 80 00 00 FF 83 1E 82  Length = 234000 BitCount = 121 ID = 916
   0.385149 1  420             Rx   d 8 90 00 20 C8 FE 4F 6A 00  Length = 228000 BitCount = 118 ID = 1056
   0.385417 1  421             Rx   d 8 00 00 00 FF E3 7F 20 BE  Length = 234000 BitCount = 121 ID = 1057
   0.389417 1  386             Rx   d 8 00 C0 00 00 00 40 00 80  Length = 236000 BitCount = 122 ID = 902
   0.389585 1  164             Rx   d 4 00 08 10 18  Length = 160000 BitCount = 84 ID = 356
   0.389824 1  381             Rx   d 8 80 18 40 00 00 EE CB 05  Length = 230000 BitCount = 119 ID = 897
   0.390058 1  111             Rx   d 8 00 40 61 FF 7B 09 0B 10  Length = 226000 BitCount = 117 ID = 273
   0.390294 1  112             Rx   d 8 FF 00 00 00 FF 09 0B 00  Length = 228000 BitCount = 118 ID = 274
   0.390537 1  113             Rx   d 8 00 20 00 80 00 00 01 50  Length = 234000 BitCount = 121 ID = 275
   0.390779 1  18F             Rx   d 8 FA 50 00 00 00 48 00 20  Length = 234000 BitCount = 121 ID = 399
   0.391029 1  1BF             Rx   d 8 00 00 00 00 00 00 00 00  Length = 242000 BitCount = 125 ID = 447
   0.391241 1  200             Rx   d 6 00 00 9F 00 00 00  Length = 204000 BitCount = 106 ID = 512
   0.391473 1  251             Rx   d 8 04 04 DC 6F 00 03 08 80  Length = 224000 BitCount = 116 ID = 593
   0.391706 1  260             Rx   d 8 0C 17 17 30 00 C7 64 31  Length = 224000 BitCount = 116 ID = 608
   0.391892 1  2B0             Rx   d 5 01 01 00 07 BC  Length = 178000 BitCount = 93 ID = 688
   0.392121 1  316             Rx   d 8 65 17 50 0B 17 16 00 6D  Length = 220000 BitCount = 114 ID = 790
   0.392355 1  329             Rx   d 8 F2 B5 7C 0C 11 20 00 14  Length = 226000 BitCount = 117 ID = 809
   0.392561 1  374             Rx   d 6 50 0B 00 00 00 00  Length = 198000 BitCount = 103 ID = 884
   0.392805 1  340             Rx   d 8 00 00 00 24 94 00 C8 10  Length = 236000 BitCount = 122 ID = 832
   0.392977 1  436             Rx   d 4 00 00 00 00  Length = 164000 BitCount = 86 ID = 1078
   0.394327 1  153             Rx   d 8 00 00 10 FF 00 FF 60 6E  Length = 232000 BitCount = 120 ID = 339
   0.394564 1  220             Rx   d 8 15 E4 80 30 00 FB 0F 7A  Length = 228000 BitCount = 118 ID = 544
   0.394772 1  47F             Rx   d 6 00 04 FF FA 00 00  Length = 200000 BitCount = 104 ID = 1151
   0.394996 1  490             Rx   d 7 00 00 08 21 00 00 3C  Length = 216000 BitCount = 112 ID = 1168
   0.395168 1  507             Rx   d 4 00 00 00 01  Length = 164000 BitCount = 86 ID = 1287
   0.399290 1  387             Rx   d 6 58 3D 0B 08 00 A8  Length = 190000 BitCount = 99 ID = 903
